(0.000000) can1 18FEFF40#006E000501BE0007
(0.009589) can1 18FEFFFF#8DC550DC
(0.011067) can1 18FEFF20#E0877CE351C2C898
(0.016955) can1 18FEFFF4#F76E5EE8E16A4DE5
(0.022112) can0 18FEFFFF#441264218BA966BC
(0.023732) can2 18FEFF10#637BEF1DAE3AD352
(0.028288) can1 18FEFF40#6A74B8B3
(0.037434) can2 18FEFF50#BF12
(0.038773) can1 18FEFF00#242535AB8E6C73F7
(0.046127) can2 18FEFFFF#5A23E4B7413B3CF6
(0.053593) can2 18FEFF50#9B0B23C11730FC55
(0.057044) can1 18FEFF00#E22B552CB9AD9440
(0.058241) can1 18F0FFFF#690CE36F19842FD2
(0.064719) can1 18FEFF10#8759903E
(0.073084) can1 18FEFF50#8C8DFB0A84BD5662
(0.077914) can0 18FEFFFF#0FAA000193F2B8B2
(0.081912) can2 18FEFFFF#C09234517FEE681F
(0.083742) can2 18FEFF20#8627BBBF742836A3
(0.085675) can2 18FEFF40#9613DEC1
(0.089611) can2 18EEFFFF#8B90C99ADB9CEC1D
(0.096145) can1 18FEFF00#15688F53F4F73C44
(0.097748) can1 18FEFF20#CDD8
(0.100346) can1 18EEFF31#78D7A4CB
(0.109407) can2 18FEFF10#A835DCB43F709204
(0.119298) can1 18FEFF00#A50D
(0.123032) can2 18FEFF31#346726B536E49F8F
(0.126648) can1 18FEFF20#0EF2
(0.133057) can1 18FEFFF4#B551
(0.139324) can2 18FEFF31#E3F5674BFD058901
(0.142062) can1 18FEFF40#EB62DF2ADC3E8880
(0.146587) can0 18FEFF20#89F919BCE9E3CAFA
(0.155207) can0 18FEFFF4#ED70
(0.164940) can2 18EEFFF4#18C475ECFDD0CB3C
(0.170858) can1 18FEFF40#0AB5764C
(0.174759) can0 18EEFF10#CD6ADA9C
(0.178256) can1 18F0FF00#6A4C8E83
(0.186621) can1 18FEFF00#0BCF34DEAC7B1678
(0.190381) can1 18FEFFF4#6660A6847978939D
(0.193776) can1 18FEFF31#4F3DE4FA
(0.202117) can0 18FEFFF4#2F079920
(0.206216) can2 18FEFF20#45B4310F31FC0953
(0.209839) can1 18FEFFFF#1F0B
(0.212757) can0 18FEFFFF#D6601FB7033E56A2
(0.216136) can0 18FEFF50#2124
(0.221788) can1 18FEFF10#902EAA05D6075419
(0.226784) can2 18EEFFF4#3EA048A41A09E8EB
(0.236614) can1 18FEFF10#BB43D826E2AD510E
(0.237684) can1 18EEFF31#BE886B738DF45356
(0.241649) can0 18EEFFFF#4EE147B0DC731AB4
(0.251275) can1 18FEFF31#E5CEDC085438F739
(0.255492) can1 18FEFFF4#BB3E
(0.259193) can1 18EEFF50#1C5043911C10A8B1
(0.262508) can2 18FEFFF4#74F342E0F2794F54
(0.271510) can2 18FEFF31#A48D35A9FDBE1A78
(0.275157) can2 18EEFFFF#E50E234E0F79C0B6
(0.279428) can0 18EEFF31#761F
(0.284384) can1 18EEFFFF#0769947475178D7F
(0.288154) can0 18FEFF20#0BF0
(0.290526) can2 18FEFF00#69C08C5EDFEFBB01
(0.295881) can1 18FEFF00#D2E32E7F
(0.305720) can0 18FEFF31#ADB1
(0.308773) can2 18FEFF40#F6E47B4CC47DB19A
(0.312140) can0 18F0FFF4#BE5F
(0.315974) can0 18FEFFFF#C1E984E93BC15019
(0.317052) can2 18FEFF31#DB0C11306A55DD8C
(0.318552) can1 18FEFF31#E202C61C14753760
(0.328196) can1 18FEFF10#3FD0907ABC812FD1
(0.332036) can0 18FEFF10#BDA13B56A866BAD3
(0.335488) can0 18FEFF31#8CEFBD73D0308628
(0.340708) can0 18FEFF50#83252612B81382AF
(0.343197) can1 18FEFF40#1EC41CDE
(0.350375) can2 18F0FF40#3363CD407B105AD8
(0.351992) can2 18FEFFFF#BB189E02
(0.354154) can1 18FEFF00#0A43C00FE1D94891
(0.360866) can0 18FEFF20#43610A59B6FB338B
(0.364288) can0 18FEFF20#8854211EE39931BE
(0.369623) can0 18FEFFFF#449ABA188D79B0C5
(0.375012) can0 18FEFFF4#227207DA9B807C1B
(0.378300) can1 18EEFF10#31A729129F2DDDC9
(0.383528) can2 18EEFF00#349A34EA
(0.392524) can2 18FEFF31#80300CEE5DDF3320
(0.400554) can1 18FEFF00#0D8E0AAA8E26B3D6
(0.408349) can1 18EEFF10#4609A3617B741A8B
(0.410364) can2 18FEFF31#044102BAB753F09F
(0.415789) can1 18FEFF20#E3E4BBF3
(0.419601) can0 18EEFF20#BD64838B6A47415D
(0.423602) can0 18FEFFFF#146B1CA191E2D120
(0.425155) can0 18FEFFF4#D0FE729D
(0.427058) can0 18FEFFFF#C4860071
(0.432170) can0 18FEFF20#B57E4186
(0.434283) can0 18EEFF40#23B537072D7EF126
(0.436197) can2 18EEFF00#85E77585AC74AB35
(0.437362) can1 18FEFF31#8326
(0.445449) can2 18FEFF00#770D
(0.447126) can2 18EEFF31#FC563869E7DF5412
(0.454315) can1 18F0FF10#B69D15D9E53B4D2E
(0.463989) can1 18FEFF40#1AFFFFE235B94B6C
(0.470941) can0 18FEFF40#A3B9C9F78D17E260
(0.478022) can1 18FEFF00#11D7B687C7A1961A
(0.485873) can0 18FEFF40#D212FD275C9A988B
(0.492334) can0 18FEFF31#000000006E000301
(0.495197) can0 18EEFF31#43FEB484DEF3CFFD
(0.501990) can2 18FEFF31#47F79230
(0.509386) can0 18F0FFFF#473AF5D966AE8C4A
(0.513576) can2 18FEFF20#491CB7BCB8EB63F2
(0.516184) can2 18FEFF00#FC3B1EF6
(0.520277) can0 18FEFFF4#FC48DDAC
(0.523592) can2 18FEFFFF#E3803CCC
(0.529583) can0 18F0FF00#8FD6391A7E0B40B0
(0.534170) can0 18FEFFF4#B736282C603F5661
(0.538161) can1 18EEFF40#90678CB172C8C0FB
(0.547840) can0 18FEFF50#34B4
(0.550414) can0 18FEFF10#277F
(0.557790) can2 18FEFF40#23D45783676C69B6
(0.566905) can1 18EEFF40#B859CC12
(0.569716) can1 18F0FF31#71AB38B018EB7D32
(0.579624) can0 18FEFF50#EA6576526ED74AFC
(0.584755) can0 18FEFF50#1134B292535452C7
(0.586584) can1 18EEFF50#4B30
(0.589372) can0 18FEFF40#36BF1F21
(0.598661) can2 18FEFF50#70A92564
(0.603836) can0 18F0FF50#944D24C2
(0.609037) can2 18FEFF20#385F5137C1A27B5A
(0.611871) can1 18FEFF50#0207D6EA57539D0B
(0.616175) can1 18FEFF50#1251
(0.620346) can1 18FEFF31#140BBDB859DB6020
(0.629527) can1 18FEFF20#ADD91E7300C197C0
(0.636527) can2 18FEFF20#242AD2D7933BCDA2
(0.645107) can2 18FEFFFF#080D
(0.649645) can2 18FEFF31#F5F8B47F
(0.651449) can1 18FEFF00#450F23FBEF91C160
(0.656858) can2 18FEFFF4#B22A7BDA
(0.658262) can1 18EEFF31#12BAEB7924EA1147
(0.664537) can0 18FEFF50#AD4C25AB4BDCEF19
(0.672333) can1 18FEFF20#B37248D1BDF0FABF
(0.674888) can0 18FEFF31#1F77F18693401D09
(0.679552) can2 18FEFF00#FC8263E65F4FCD64
(0.683276) can2 18FEFF20#2BAC2C04
(0.685097) can2 18FEFF31#C8931D32
(0.688743) can0 18FEFF20#FC84A48A
(0.696661) can2 18FEFF31#FBA6AF026AC275A9
(0.700816) can0 18FEFF50#7FE9C33B
(0.710701) can1 18FEFF40#306D2D4830170E4C
(0.718444) can0 18FEFFF4#0F2F51DAB5ED1F8E
(0.724897) can2 18FEFF20#267A4F505F37608D
(0.728687) can2 18FEFF00#F991AD24AD49A936
(0.737887) can1 18FEFFF4#46117396
(0.746928) can2 18FEFF10#2D2CB32E
(0.756699) can2 18FEFFF4#83E6
(0.766146) can1 18FEFF31#AEB04CE7D32E7601
(0.774291) can1 18EEFFFF#57ABAE1A3FF5687F
(0.777248) can1 18FEFF50#4950
(0.784215) can0 18FEFF00#02E6E204
(0.788491) can0 18FEFF10#4766813A34DDEF91
(0.792944) can2 18EEFF00#103F91DD6385BC7A
(0.797638) can0 18FEFF50#3840148B76E7085A
(0.800586) can0 18F0FF00#3C96FF5BFF0864A3
(0.808613) can1 18EEFF40#9458EB2A
(0.813831) can2 18FEFFFF#189BC9FCD552186E
(0.821120) can2 18F0FF00#936E48E3D6E3D2AB
(0.823605) can0 18FEFF20#0DBDD4DF1926F98E
(0.833198) can2 18FEFF20#D6C0
(0.842809) can1 18EEFF31#1A2A
(0.852058) can1 18EEFFFF#D7C3
(0.858640) can0 18FEFF00#8A84CB574C7D7B5F
(0.864226) can2 18EEFFFF#85F3303284D4D4D0
(0.867821) can0 18EEFF31#46A7CD68
(0.868895) can1 18EEFF20#C2812E32
(0.876410) can0 18F0FF31#8121FB6339F191F7
(0.878827) can1 18FEFF31#0FA62F9DD4A2FAB4
(0.883229) can1 18FEFF00#6AF3F4344275504B
(0.893209) can0 18FEFF50#923B
(0.899492) can2 18FEFF40#5008D0EB905E7C5F
(0.907862) can0 18FEFFF4#8A28
(0.912013) can1 18FEFFFF#C613F3CFC080B048
(0.918369) can0 18FEFF40#59867592C4BBF323
(0.921677) can0 18EEFF31#AB502590
(0.925589) can0 18EEFF20#989385FF
(0.932496) can2 18FEFF31#C76E
(0.938124) can2 18FEFFF4#8DE2
(0.940304) can2 18FEFFF4#D56CB976C50FCCC1
(0.944344) can2 18F0FF31#FE8D8DF00115DFB4
(0.953020) can1 18F0FF00#FBD2
(0.959895) can0 18FEFF40#B4E88C8F
(0.969728) can2 18EEFF10#6EBF
(0.973956) can0 18FEFFF4#BF0FBD59E0DF8A70
(0.979626) can2 18FEFF00#B5CB
(0.987719) can1 18FEFF00#94ED3E60B07CEE2F
(0.993833) can0 18FEFF50#1C42
(1.000935) can1 18F0FF31#4BF075E442BD607F
(1.004067) can0 18F0FFF4#3B27
(1.012365) can0 18FEFF40#D4EB96A47A825662
(1.022198) can0 18FEFFFF#BCE3AD7C
(1.023621) can0 18FEFF20#59F6
(1.028540) can2 18FEFF00#10AA4286
(1.031170) can0 18F0FFF4#082828E41D5A409F
(1.036928) can1 18F0FF20#867905948202F44D
(1.044040) can1 18FEFF31#5891DF5D411D975C
(1.051482) can2 18FEFF50#7FA4906CBF6179EA
(1.054306) can1 18FEFF20#E6E9
(1.057259) can2 18FEFF40#006E000501BE0007
(1.062729) can2 18FEFF31#AC3472ED00B5EA7A
(1.067174) can0 18FEFF20#591D02F6BDA90F06
(1.073444) can0 18FEFFFF#D8684B893F708B81
(1.079452) can2 18FEFF10#409C4B6E637D754D
(1.084074) can0 18F0FFFF#57990843AAD36405
(1.086246) can0 18F0FF31#C558
(1.092299) can1 18F0FF20#F5746B39
(1.099038) can2 18FEFF00#4F118FBE
(1.101275) can1 18FEFF20#D3F2634F33DFFCC0
(1.107576) can2 18EEFF40#C4EAB8A8026E99BF
(1.110652) can2 18FEFF50#79ED
(1.120240) can2 18FEFF50#0BA51E80C1AB304E
(1.129754) can0 18FEFFFF#1B26
(1.138902) can1 18FEFF00#913ED2D4
(1.143158) can1 18FEFF10#E821
(1.151842) can2 18F0FFF4#27863A6AFEDBB1D2
(1.152845) can1 18EEFF40#5C4F
(1.155512) can2 18FEFF31#161232E21C62B74D
(1.158479) can2 18F0FF00#43B4C8F5
(1.161907) can1 18FEFFF4#D4E922E2
(1.164013) can2 18F0FF20#E5E5E0EFFD73E22A
(1.168422) can2 18F0FF00#8220B9B37C56E94E
(1.170031) can1 18FEFF31#2E4122C9500E42CD
(1.172221) can1 18F0FF40#FC30
(1.179918) can2 18FEFFFF#118ADB65
(1.188730) can1 18FEFF40#C4A031F461BE2F0C
(1.191518) can2 18FEFFF4#4DA4692EA46F760F
(1.196671) can1 18FEFF31#411103AC345F8061
(1.202617) can1 18FEFF00#2B92F31E92190EED
(1.208657) can2 18FEFF20#ED12
(1.215502) can1 18FEFFFF#B48EC5FC
(1.222103) can2 18FEFF31#1E438007
(1.230281) can1 18FEFF00#384555080991ABB7
(1.239226) can1 18FEFF40#A94CA52F1FDE86CA
(1.247778) can2 18EEFF40#CA7D938F
(1.251532) can2 18FEFF50#BB8074420B2D3B31
(1.252539) can0 18FEFF50#0751342DF181434E
(1.254346) can1 18FEFFF4#577F0FEC0E4C6438
(1.260230) can1 18FEFF40#A338BD3E
(1.267001) can0 18EEFFFF#D68F5D2C
(1.273500) can2 18F0FF10#A67B52B5
(1.278189) can1 18F0FF20#1DA1919309B096F4
(1.284061) can1 18FEFF20#3357808EFA6A2C25
(1.289657) can2 18FEFF40#A678D1791D3852EB
(1.298973) can2 18EEFF50#D089F3FAB7197952
(1.308322) can1 18EEFF00#BAF99F13
(1.315585) can2 18EEFF50#0E5F7FF6
(1.319596) can1 18EEFF20#FDBFABD7
(1.326629) can0 18FEFF31#329C
(1.330446) can0 18FEFF20#119D2E0A
(1.331816) can2 18F0FF50#7237C1C558F50031
(1.336587) can1 18FEFF10#1475
(1.345534) can1 18EEFF00#E3BBA5165C981B30
(1.352638) can1 18FEFFF4#78731F6EB6527B49
(1.357724) can2 18FEFFF4#0A8D
(1.360770) can0 18FEFF10#271F41CE2DE2C01A
(1.366913) can0 18EEFFFF#FFF67CF159E020D2
(1.376821) can0 18EEFF50#57F7BA671D87E924
(1.380511) can0 18F0FF10#E728F69D
(1.389604) can1 18FEFFFF#79E10ED06ED1CF06
(1.397050) can0 18FEFF20#8F8E95397D07F801
(1.405046) can1 18EEFF31#5E59D7958A37F980
(1.407141) can1 18FEFF10#EC64AAE8FEE0CFAA
(1.415592) can2 18FEFF50#79D71E25
(1.420695) can0 18FEFF50#0F2F8FBC
(1.429876) can0 18FEFF31#4C1CB7F6
(1.439607) can1 18FEFF20#7ACC6FB4
(1.444785) can1 18F0FF40#A318
(1.451384) can0 18FEFFFF#20E151FFA54DC2D6
(1.460728) can0 18EEFF10#04A6B3CF104C69B5
(1.465738) can0 18EEFF00#FFA5C0FA43BD8709
(1.474759) can1 18FEFF40#115C72D70FAE62A1
(1.479350) can1 18FEFF00#0CC4E70FC4958CBC
(1.482108) can1 18F0FF00#6F3D20E0
(1.490297) can2 18FEFFF4#EA796A189F12E9D2
(1.492356) can2 18FEFF00#28619A84
(1.500740) can0 18FEFF31#4A4677F9
(1.509710) can0 18FEFFFF#CC50
(1.511818) can2 18EEFF50#0575E24C
(1.513423) can1 18FEFF31#259E
(1.522190) can2 18F0FF31#6E74F51E7D967CA2
(1.525347) can1 18FEFF40#B7DC
(1.526562) can0 18FEFF50#69510CBD96D03C30
(1.534613) can0 18FEFF40#5472
(1.539345) can2 18FEFFFF#EE2FABAD06A3BDDC
(1.542748) can0 18FEFF40#9772BDC025D2B84D
(1.550167) can1 18EEFF40#2A1C05DF6E0E4405
(1.556726) can2 18FEFF50#DECE286E
(1.563768) can1 18FEFF00#705C6B17E9D83239
(1.567449) can0 18FEFF31#FCBE
(1.568558) can2 18FEFF10#A99276B70EE01021
(1.576105) can0 18F0FF00#CCC523247F128711
(1.580041) can2 18FEFF00#FB17A9B1D3421A2C
(1.589668) can1 18FEFFF4#0CFCA6FC
(1.598013) can2 18FEFF20#72F36152
(1.601333) can0 18FEFF31#C9B7C24A
(1.609123) can0 18FEFF40#63C63019
(1.617634) can1 18FEFFF4#EA83
(1.622627) can1 18FEFFFF#C19A
(1.627922) can0 18FEFF22#006E000501BE0007
(1.632122) can2 18FEFF10#600A7D840DC55757
(1.635941) can2 18FEFFFF#1CBD64249FD8BB0A
(1.639707) can0 18FEFF50#0169F9535DA119E1
(1.647755) can0 18EEFF40#BB8565FF8FD1F355
(1.651841) can2 18EEFF20#FC14
(1.661007) can1 18FEFF40#D1E49178
(1.669120) can2 18EEFF50#CFD99039CEDE448C
(1.676109) can0 18EEFF20#90A0
(1.683602) can0 18FEFF10#3EC3277686FC9F30
(1.690984) can0 18F0FF10#95A30C47
(1.699767) can2 18FEFF00#E0CA81AB93B765CD
(1.708481) can2 18FEFF20#A121
(1.716355) can0 18FEFF00#1619
(1.722899) can2 18FEFF50#B821FB1B
(1.729531) can0 18F0FF50#9D8FE19B
(1.730626) can1 18FEFF20#CECAAD30F8DB9837
(1.739921) can0 18FEFF50#C0E7E86271DD5A68
(1.746103) can1 18FEFF00#C225DF4A90347EDB
(1.751492) can1 18F0FF40#FDEB4910F1CAC697
(1.756334) can2 18EEFFF4#9C8E0502C7CAB37E
(1.760715) can0 18FEFF20#6D04CDD2B395EDDD
(1.761727) can1 18FEFFFF#C1583EB4648A8BF0
(1.767899) can0 18FEFF00#FBB34FC3131AAA25
(1.773289) can2 18FEFF40#FEA75F6A15C7F526
(1.779213) can1 18EEFF00#CFC6EAC1
(1.781260) can0 18FEFF10#68ABB925
(1.786927) can2 18F0FF50#50C73559CC9B7BA8
(1.796057) can0 18FEFF50#4FB526A6
(1.802537) can0 18FEFFFF#125A
(1.811041) can0 18FEFF31#162713929916FE3C
(1.819824) can1 18FEFF50#732BCAD5CC6BFDC3
(1.824702) can2 18FEFF40#4C267886
(1.828214) can2 18FEFFF4#588895734A63F9EB
(1.833520) can1 18FEFF20#3F730E8E7D8D3558
(1.835219) can1 18FEFF10#C188CBAA026F6A1F
(1.842724) can2 18FEFF31#BD3950A78E29B8E6
(1.847820) can1 18FEFFFF#06B434878995AE7E
(1.852831) can2 18FEFF00#3667E73324AA4841
(1.860307) can2 18FEFFFF#B717943F0F0EF397
(1.866100) can1 18EEFFFF#985EBDEC
(1.869444) can2 18FEFF00#366619FE
(1.872792) can1 18FEFFFF#8E1A08A5112AE977
(1.873826) can2 18F0FF00#C0EC88A4
(1.883110) can0 18F0FF40#A718CEC5
(1.889308) can1 18FEFF00#682A
(1.892368) can2 18FEFF20#FAEBCDBCE4F12BAF
(1.893557) can0 18FEFFFF#DDB801120D161339
(1.900234) can1 18FEFF50#1798C855704D2A03
(1.909666) can2 18FEFF40#9AF14FB4
(1.913862) can0 18FEFF20#376A6F27
(1.917567) can1 18FEFF50#A2FEE22BF9A28CE6
(1.919189) can0 18FEFFF4#5BEACE1BBA1A8959
(1.927818) can0 18EEFF31#C86FDFEE39B5F815
(1.936395) can0 18FEFF31#233C160FD008F464
(1.938899) can1 18F0FFF4#FCBF13F070107E39
(1.947194) can2 18FEFF40#B46366D105364DB1
(1.949361) can2 18FEFF40#0307C8DCAA26F97D
(1.954653) can1 18FEFF00#642A3E57A000D98C
(1.956613) can0 18FEFF00#61058E7A3517BE76
(1.962947) can0 18FEFFFF#EB34C2BC
(1.964708) can2 18EEFFFF#74C98F52
(1.969512) can2 18FEFF40#ECD8
(1.971886) can2 18FEFF20#1743FA07FAFA802D
(1.978453) can2 18FEFFF4#0E5FC1B5C99B787C
(1.985314) can0 18FEFF10#DE4C85F73F463E0D
(1.993688) can2 18F0FF10#7D67C9BC
(2.001046) can2 18FEFF20#62DA24E3
(2.006765) can2 18FEFF31#C975
(2.010745) can0 18FEFF50#6F73E97D
(2.020324) can1 18FEFF50#AC284EDB21800591
(2.021480) can1 18FEFF00#FB3C22C398C46378
(2.023595) can2 18FEFFFF#B328F742DC27B92A
(2.026806) can0 18EEFF31#F9D5342D
(2.029390) can0 18FEFF10#BB8B
(2.036659) can0 18FEFF31#E1C900EA9791B803
(2.040469) can0 18FEFF20#A0EB1E8444BDC9D4
(2.043353) can0 18FEFF50#C8BB4D9AD232BECF
(2.052221) can1 18FEFF31#A6128CF181558BD8
(2.055365) can0 18FEFF00#FDBFB9574185ACBB
(2.061316) can2 18FEFFF4#3A0E412BE561945F
(2.070130) can1 18FEFFF4#9883
(2.071255) can1 18FEFF40#6018B136
(2.073995) can2 18F0FF40#A49B2282AC0A0ECD
(2.076019) can2 18FEFF31#BAEDBE93C0E9CBA4
(2.081790) can2 18FEFFFF#5D961774A955ACE9
(2.091026) can0 18FEFF31#598F7304
(2.093876) can0 18F0FF40#5FF95390CCE6A022
(2.095211) can0 18EEFF50#1ED30090250AEDD8
(2.098926) can2 18FEFF40#1F5BEE387F6B4FC7
(2.106559) can0 18FEFF31#96B2
(2.109599) can0 18FEFF31#8739
(2.119178) can0 18EEFF40#B0A11632ACD712EA
(2.126706) can0 18FEFFFF#ADD9F467
(2.131934) can2 18EEFF50#BF347837
(2.140363) can2 18FEFFF4#87E3CD8B31FC1EA9
(2.149142) can1 18F0FF40#AD106BA3ADE89D06
(2.156202) can2 18FEFFFF#E431ACE852E9D0FF
(2.158914) can1 18FEFF00#5AED
(2.160194) can1 18FEFFF4#A1D92CC6
(2.169896) can2 18FEFF22#006E000501BE0007
(2.172474) can1 18EEFF00#E924
(2.176026) can2 18F0FFF4#37E1B81A2D20A4A0
(2.178239) can0 18FEFF31#8687BCE7D8C4D060
(2.182964) can2 18FEFFF4#CF83
(2.185475) can2 18FEFF10#E5DC
(2.194192) can0 18FEFF31#2361C042D7A6641D
(2.199663) can0 18FEFF31#3642BDAF4F2AB7AA
(2.206291) can1 18FEFFF4#29D43F6DD3950A34
(2.209883) can2 18FEFF50#DF0F98C39DC80A95
(2.217204) can1 18FEFF40#7AB00950
(2.222871) can0 18FEFF20#D28440FEBBBE8F2E
(2.228109) can1 18F0FFF4#3A54B13CF7E24062
(2.229662) can0 18FEFF00#3364A8758BFA3E2D
(2.232105) can2 18FEFF31#FDF3
(2.233213) can0 18FEFF40#82C16AA6D7610000
(2.238614) can1 18FEFF10#F29FCD1D4AA7CC47
(2.240559) can1 18F0FFFF#FF60A37A
(2.245835) can0 18EEFF40#DC54CF0609CF6090
(2.247898) can2 18EEFF00#25FA477EFBEF09B2
(2.254940) can0 18FEFF31#326022B9
(2.264368) can2 18F0FF00#458990E797006D19
(2.269254) can2 18F0FFFF#0C0B
(2.276351) can0 18FEFF10#BA1D48226B2B972B
(2.283041) can2 18FEFFF4#D1421FBD4A7A8833
(2.291479) can2 18FEFFFF#57317676
(2.301419) can0 18FEFFF4#B925E2FDA6DD8220
(2.309806) can2 18FEFFFF#9C8F5F30
(2.316717) can0 18FEFF31#8D0B2905
(2.319231) can2 18F0FF10#437FB07DBD3152F4
(2.328832) can1 18EEFF40#125EE978AB2EAEFF
(2.335714) can1 18FEFF31#23532A89
(2.345155) can1 18FEFF40#5A04
(2.353453) can0 18F0FF00#6222B47409C982F1
(2.354615) can1 18FEFF00#4853FB2121296875
(2.362205) can0 18EEFFFF#6D1FB23BA7127BA0
(2.371305) can1 18FEFF31#CB16F8382FD867A2
(2.381284) can2 18FEFF40#4C9F0499
(2.388985) can2 18FEFF20#E5205C240F51870D
(2.393847) can2 18EEFF00#6F412EB2
(2.400314) can1 18FEFF50#57412C17
(2.405341) can1 18FEFF00#BAB4557A
(2.407354) can2 18F0FF31#BB97A2C9
(2.409512) can1 18F0FF20#4D352A09D28BAD41
(2.416320) can2 18FEFFF4#7BFD
(2.421599) can2 18F0FF40#5916A5E7
(2.427662) can1 18FEFF40#F07CEFED866C74AA
(2.430092) can0 18FEFF50#66B98983A70B3560
(2.434188) can1 18F0FFFF#1F9732E520B9434E
(2.441295) can0 18FEFF31#A9BA
(2.443692) can1 18FEFF40#EF971184C70D63E0
(2.448946) can1 18F0FF10#744D62CAE3349398
(2.450506) can1 18FEFF40#763153B0F913667F
(2.457584) can0 18FEFF31#A31EAB454D7680CC
(2.461060) can2 18EEFF00#2B0D
(2.462564) can1 18F0FF00#99A7319E
(2.466084) can1 18FEFFFF#D06C89A11D3F6D28
(2.475589) can0 18FEFFF4#97C6A75DF00F1D1E
(2.483373) can0 18EEFF20#BCFD
(2.489918) can1 18F0FFFF#BEAE08F6E46C0865
(2.496261) can1 18FEFF40#A9F8
(2.504524) can0 18FEFF20#B8B62705
(2.514198) can0 18FEFF00#12CDB1900DF0BED5
(2.517717) can0 18FEFF10#E607BBB9888E851F
(2.524103) can0 18FEFF00#84969969C489B997
(2.530268) can1 18FEFF00#16954F37
(2.533991) can0 18FEFFF4#704784A98B48D04A
(2.542486) can0 18F0FF40#F0FD457C
(2.550284) can2 18FEFF31#9428
(2.554515) can1 18EEFF31#6D24663D1D6528C7
(2.557089) can2 18FEFF20#2D59
(2.560655) can1 18FEFF50#6C2D29C8
(2.565882) can2 18FEFF31#67CC
(2.575446) can1 18F0FF50#90940938853F4F91
(2.577282) can1 18F0FF31#340278CCDB1475B4
(2.581818) can2 18FEFF40#F603747799173054
(2.583855) can2 18FEFF40#D08B
(2.585215) can1 18F0FF40#B5A1
(2.587265) can2 18FEFF20#35BE
(2.590562) can1 18FEFFF4#0E4C9BE85E42CB8A
(2.599345) can0 18F0FFF4#AC35E1AEF0F3566E
(2.606811) can1 18FEFFF4#1F3A5469197392AC
(2.609700) can1 18FEFF31#DA7B5C7547300C15
(2.614679) can2 18EEFF20#F43C
(2.624135) can0 18FEFFFF#6E87
(2.627400) can2 18F0FF00#F734
(2.632579) can2 18FEFF50#9FFB0173D8965211
(2.637114) can0 18F0FF50#F4A21A25
(2.638404) can2 18FEFF40#B5FFB07B4C669F8D
(2.645917) can0 18FEFF50#045965245944D3C5
(2.652516) can2 18FEFFFF#7801FDB84B73F1C6
(2.656925) can1 18FEFF31#2D3DBC3A
(2.665282) can2 18FEFF00#A792
(2.667560) can2 18FEFFFF#696DA2BC199A54D7
(2.677423) can1 18FEFF10#D40F
(2.679235) can2 18F0FF31#F0BF6D09
(2.681169) can2 18FEFF31#C77D5B6930186B4F
(2.684599) can2 18FEFF50#8094F262
(2.692083) can0 18F0FFFF#46D5
(2.700568) can2 18FEFFF4#7E3B35F9E9639C43
(2.707066) can1 18FEFF31#006E000501BE0007
(2.717000) can2 18EEFF31#80357A1507B0C86E
(2.725524) can2 18FEFF40#C6BA81B774F34CF9
(2.730475) can0 18FEFFFF#6018F8E9B5F548E5
(2.737355) can0 18FEFFF4#92183E44420F806E
(2.741255) can2 18FEFFFF#F42F
(2.749194) can1 18F0FF40#5645B5701AC85B14
(2.758908) can2 18FEFF31#F293
(2.764915) can1 18EEFF10#39FFE6B82814E65D
(2.766086) can2 18FEFF20#10037509
(2.771057) can2 18FEFF40#B6C0F82C03E3B0D6
(2.780645) can1 18FEFF10#0C2944B4
(2.787965) can0 18FEFF40#198D438E5DB3DAE2
(2.797306) can2 18FEFFF4#EAA3693E16E048C8
(2.804012) can2 18FEFF00#5D722090B7AD3766
(2.812819) can0 18FEFF50#8BFC6F11654279A6
(2.817211) can1 18FEFF50#D960689E64BEAB8C
(2.824786) can0 18F0FF10#44B2B55A
(2.827519) can1 18FEFF31#E7750C2CC1FA4328
(2.829318) can0 18F0FF40#D92BF0C67EDEFCFB
(2.834046) can1 18F0FF00#13BF1CF2968D97C2
(2.843607) can1 18FEFF50#D26C
(2.846125) can1 18FEFF00#9652
(2.855004) can2 18EEFFFF#6C80F2C4
(2.856224) can0 18FEFF00#45DF
(2.864547) can1 18EEFF10#04B54B2467DCB226
(2.872338) can1 18F0FF20#396778A2
(2.874404) can1 18FEFFFF#9369F1E2
(2.880196) can1 18F0FF31#05A10262753A9C88
(2.884312) can0 18FEFF00#53A2465820755D2B
(2.886732) can1 18FEFF00#D825FACE1D1BBDB0
(2.894227) can0 18FEFF20#645C5962
(2.902337) can0 18FEFF20#02741EE0C13F1128
(2.904274) can1 18EEFF40#2A43426683DF3474
(2.910796) can1 18FEFF10#C89A3DB30FF4ED8C
(2.913631) can2 18FEFF50#A267E36D6971DEDB
(2.915920) can2 18FEFF31#0B049D75
(2.921068) can0 18EEFF20#E40A8A2996893B93
(2.928701) can1 18FEFF10#D66D0E575FB6A300
(2.934094) can1 18FEFFF4#0368
(2.942900) can2 18F0FF00#1A556BB448B563ED
(2.950004) can1 18FEFF00#A7216F2F89119D90
(2.954672) can1 18FEFF50#5FAC47E43B627E69
(2.961783) can0 18F0FFFF#C7D7D6AAF875A524
(2.969472) can1 18FEFFF4#C44C553A
(2.977744) can0 18F0FF20#F544740799A635CF
(2.979312) can0 18F0FF10#F3ED7F0A
(2.982109) can1 18FEFFFF#9D4F
(2.991919) can2 18F0FF40#889AD386
(2.995497) can0 18FEFF40#8BBEF851
(3.001033) can1 18EEFF10#93F8
(3.004776) can2 18EEFF40#0FA3
(3.012316) can0 18FEFFFF#CEC3C23A
(3.017108) can0 18FEFF31#EF58A374
(3.019355) can2 18FEFF31#005263AD62963B50
(3.026082) can1 18EEFFF4#155E
(3.034686) can1 18EEFF20#9E4A51B947C14516
(3.037365) can0 18FEFF10#AAA53FAE2B97EE3F
(3.040022) can1 18FEFFFF#02D17D6C
(3.046715) can2 18FEFF20#578D8F4659036A1D
(3.049156) can2 18FEFF10#73FA
(3.053588) can2 18FEFF20#029DF6CC
(3.054757) can1 18EEFF50#EAEE8761AE6AF2D5
(3.059731) can1 18FEFF20#0116EE5D
(3.063668) can1 18F0FF40#C01F22148A002097
(3.072712) can1 18FEFF40#77FE85F91EDE9C8F
(3.076546) can2 18EEFF10#38AF
(3.083999) can1 18FEFFF4#6AB9181786403B00
(3.088903) can2 18FEFF10#104420C6
(3.091710) can1 18FEFF31#A2BC4600A4B00189
(3.097915) can1 18FEFF10#EA71D1809490B424
(3.103301) can0 18FEFF31#00C1
(3.109733) can1 18FEFFFF#B166BA76
(3.117622) can1 18FEFFFF#97D408CC
(3.123886) can1 18FEFF50#351C65FC
(3.125880) can0 18FEFFF4#05A99C29
(3.129199) can0 18FEFF00#F1BA5060E5820B4D
(3.137737) can2 18FEFF50#B99992E7
(3.143772) can2 18FEFF50#47D5
(3.145929) can0 18FEFF20#816735D6
(3.155287) can0 18FEFF00#3F37
(3.158527) can1 18EEFF10#A5D3CA4B25DCF091
(3.160762) can2 18F0FF31#A50D0A0FC7CB02BB
(3.167983) can0 18FEFFF4#73F0C6098BE37A42
(3.170328) can2 18FEFFFF#56AD076F
(3.174274) can0 18FEFF10#7DE6
(3.178589) can0 18FEFF10#9236
(3.181560) can2 18F0FF10#1348B3A146F89F19
(3.189838) can1 18FEFF00#93B2DDE31BE1FD36
(3.196800) can2 18F0FFFF#4DE2
(3.205886) can0 18FEFFFF#EFD78255EB02F75D
(3.208926) can0 18EEFF40#223A8E750B3C281A
(3.210696) can1 18FEFF31#1C7B8E668FA3586E
(3.213771) can1 18FEFF00#FDE2
(3.219154) can2 18FEFF31#18E31E81
(3.227855) can2 18FEFF20#67EBD504
(3.235409) can0 18EEFF50#AD31AE371D2F417D
(3.244716) can0 18F0FFF4#A98C1C86
(3.254531) can1 18FEFFFF#E38EFD621A2719B5
(3.255621) can2 18FEFF50#5AA1D1FF161B87B4
(3.260912) can0 18FEFF22#006E000501BE0007
(3.264927) can0 18FEFF20#0201F3FE
(3.266063) can0 18FEFF31#FAD9D3F05E5442A5
(3.274470) can0 18FEFF40#639FE1C2
(3.278801) can1 18FEFFF4#46EBAAE6
(3.286708) can1 18FEFF10#0259
(3.294874) can2 18EEFF50#A3C9
(3.303680) can2 18F0FF10#24BB292E
(3.306125) can0 18FEFFF4#98FFAC0B1CA8A93A
(3.311145) can1 18FEFF10#0FF0631CE72CB96C
(3.315375) can1 18FEFF00#DA7A
(3.318155) can2 18FEFF40#E0ABD4F0A13FE7EF
(3.325169) can2 18FEFF31#69255537
(3.331080) can2 18FEFFF4#79F36435E75F3FED
(3.340597) can1 18FEFF50#01AA
(3.344568) can1 18EEFF31#1E3F
(3.347287) can2 18EEFF40#23C3BD5D
(3.357114) can1 18FEFF31#8DE9
(3.358201) can1 18FEFF40#3B552D73C2AA2D29
(3.359563) can1 18FEFF31#C4A41A79A3CA50DB
(3.362794) can0 18FEFF50#81909122567F4B64
(3.366627) can1 18F0FF50#16A289FE973916B0
(3.371132) can0 18FEFF40#9BBE17F6FAF50342
(3.376490) can2 18FEFFFF#17D1943C8E3C7F16
(3.379851) can0 18F0FF20#6F8AADB348F75046
(3.384917) can2 18F0FF50#1FCF
(3.389810) can2 18FEFF50#EB5102AAF268B56F
(3.391156) can2 18FEFF10#FC6066C5100236E4
(3.396313) can0 18FEFF10#7467
(3.404910) can0 18FEFFFF#F163F0BF7622DCD9
(3.413178) can1 18F0FF31#326E0C8D0B9528E7
(3.422841) can0 18FEFF10#7A4876B1100D5A71
(3.430247) can2 18FEFF10#CB8A5ABD
(3.432903) can1 18FEFF00#D30F07D7
(3.442370) can1 18FEFF00#78BFCBA6
(3.447776) can0 18FEFF31#CFE7F9D1B96AA19B
(3.450941) can0 18EEFF20#F706A31F25678AB0
(3.458001) can0 18F0FF40#0AD63DD6
(3.460840) can1 18FEFFFF#B669BC7C04D57341
(3.468146) can1 18FEFFFF#3A83
(3.475191) can0 18FEFF31#BFF6E3734AF1426C
(3.478053) can2 18F0FF20#37531B58
(3.482815) can2 18FEFF31#FDE10F5B
(3.490182) can1 18FEFF40#CBFB2F794F8953BB
(3.498799) can2 18EEFF20#D3556FF24A06515A
(3.503068) can2 18FEFFF4#A0E33AC5AD02883C
(3.510857) can2 18FEFF20#E1A8D6A70388793E
(3.514157) can1 18FEFF31#8742C772E6336906
(3.520995) can1 18FEFFFF#49F231E7E444B219
(3.524801) can1 18FEFF10#915F
(3.528177) can1 18FEFF00#652AB248D2EDA9EE
(3.536301) can2 18FEFF10#FEE7003A719B2043
(3.541817) can0 18FEFF50#F6DEFEC5
(3.546637) can2 18FEFF00#83C4BBDF2318EE38
(3.550495) can0 18EEFF00#56C855A88B08B6BE
(3.557499) can2 18FEFF31#8F5721B6C965D47A
(3.563224) can2 18FEFFFF#F58D38F40B3AB656
(3.564936) can0 18FEFF50#2CD79287B92916CE
(3.573538) can0 18FEFF20#04D83526DD6D2419
(3.578874) can1 18FEFF31#CC67B76F500BD921
(3.582732) can2 18FEFF10#4FB0BE6FA2F193EA
(3.584030) can2 18FEFF40#C998
(3.590403) can0 18FEFFFF#18F851EC5E9C1987
(3.599029) can0 18FEFF31#27AA
(3.606405) can1 18F0FFFF#8A83BF53DE6FCE92
(3.610417) can2 18FEFF20#DE674294E0F31647
(3.619152) can0 18EEFFFF#3513152A7061B262
(3.625598) can0 18FEFF40#91B1C0F2A036F9BA
(3.628854) can0 18FEFFF4#E96720CF
(3.635677) can2 18FEFF10#5ED34846
(3.643122) can1 18EEFFFF#FA2683C3460982D2
(3.644414) can2 18FEFF31#BF4D
(3.653018) can0 18FEFF10#026557B88319B6A8
(3.659648) can0 18FEFF50#E65D69F5
(3.666841) can2 18FEFF20#EDDFF42D
(3.670515) can1 18FEFF00#7B362B09453BB8BB
(3.674890) can1 18FEFFFF#D8C3
(3.680190) can2 18EEFFFF#B3576020BC955FC8
(3.687957) can1 18FEFF50#1A69C5B46E090DEA
(3.692474) can0 18F0FF10#057E9DB125FD47A4
(3.700154) can2 18FEFF40#375BA490045449EF
(3.706343) can1 18FEFF10#EDEC144BA05AF273
(3.710026) can2 18FEFF20#B04E
(3.716161) can1 18FEFF00#9AC2756B
(3.724121) can2 18FEFF31#9DE1B7C6B05B7E2A
(3.725465) can1 18FEFFFF#EBF5A8849DB695B2
(3.727308) can1 18FEFFF4#C08FB1AE168580A4
(3.731139) can2 18FEFF50#8516D7EA2E70D0D9
(3.738949) can0 18F0FF40#94B0
(3.746255) can2 18FEFFFF#32DFC27619EAD5DB
(3.749180) can1 18FEFF20#F777
(3.754104) can0 18EEFF40#E7F3
(3.755835) can1 18FEFF50#320B0276EF2D89BD
(3.757033) can2 18FEFFF4#1ED1607A7B24F179
(3.761006) can0 18FEFFFF#01F916CE5BF3B2AF
(3.767332) can0 18FEFF00#3AB4631B3F0B2542
(3.774666) can0 18EEFF50#0B77
(3.777173) can1 18FEFF50#1DF8
(3.779127) can0 18F0FF10#91D9
(3.785367) can0 18FEFF31#7BA57BDD74BDF965
(3.792852) can0 18FEFF40#006E000501BE0007
(3.793903) can2 18FEFF00#771A06AA9681CE12
(3.795847) can0 18FEFF31#8AEE
(3.798459) can2 18FEFF31#555C0B3707D16158
(3.802342) can2 18FEFFFF#9075AE3514293BFE
(3.810526) can0 18FEFF50#CB42CBFA83AE26DE
(3.815592) can1 18FEFF10#313CEDC4
(3.821687) can1 18FEFF00#8C788BAFC8233CF3
(3.823736) can2 18FEFF50#5481B7B525608EDD
(3.825670) can2 18FEFF40#48802D28
(3.835262) can2 18FEFF20#B0468992
(3.837620) can1 18FEFF10#396B4AF734EE740E
(3.844342) can0 18F0FF40#95237FC6
(3.845671) can0 18FEFF00#CF88FA4099C8F9D0
(3.848336) can1 18EEFFFF#1492BC28FE31D99A
(3.854981) can1 18FEFF50#D015C85F81F0775C
(3.864636) can0 18FEFFFF#C5BB90E2B01B3D0E
(3.870961) can1 18FEFF20#5F83FB93748F2DBE
(3.880018) can2 18FEFFFF#148D127F79921F62
(3.881985) can2 18EEFFFF#0698
(3.886314) can2 18FEFF40#1EFB
(3.891790) can1 18FEFF00#7FA2B0CB7400D664
(3.893931) can1 18FEFF10#6D9B
(3.903576) can1 18FEFF20#F2D87F17E820402D
(3.912936) can0 18EEFF10#46C3
(3.921830) can1 18F0FFFF#05780225A09852AC
(3.925468) can1 18FEFF40#C5567BBA515895A4
(3.933670) can2 18FEFF20#0835F5198368589A
(3.943449) can1 18FEFF10#759718A005F33275
(3.944633) can1 18FEFF10#BBCB
(3.947221) can1 18FEFFFF#D4C2
(3.950907) can2 18FEFF00#7F13942E
(3.958591) can1 18F0FF40#84D4FB7D
(3.963388) can0 18FEFFFF#EE5277BD2B516272
(3.970497) can1 18FEFF00#F43F
(3.972082) can1 18F0FF20#BAB643A20CA41636
(3.980095) can2 18F0FFFF#A2CF3F281D493435
(3.985645) can1 18FEFF40#29429EE79E71CF45
(3.988945) can0 18FEFF31#0AB04DCB
(3.990810) can0 18FEFFFF#98EB2EE1C30A69A8
(3.999472) can2 18F0FF40#62A3512D
(4.007264) can2 18FEFF10#1D997C18
(4.012530) can0 18FEFF40#5CCED184A61B2736
(4.021784) can0 18FEFF20#1F27A61AD86B1449
(4.025704) can0 18F0FF50#DF23E362
(4.027827) can0 18FEFF10#12541A362BA70247
(4.032158) can0 18FEFFFF#C72E
(4.035356) can1 18FEFF31#4B02F09CC2607560
(4.045146) can1 18FEFF31#DD5305ED
(4.047130) can1 18FEFF00#7C0FD844
(4.055144) can1 18FEFF10#E78678AA
(4.056644) can1 18FEFF40#F95165A88D5C5C8F
(4.063775) can1 18FEFF40#DD594C4FA79178B9
(4.068099) can0 18FEFFFF#8D78
(4.075414) can2 18FEFF20#94C2
(4.079801) can2 18FEFF40#9BE308BB40A553C3
(4.087198) can2 18FEFF40#25F66D0EBFCE0E05
(4.095833) can2 18FEFF20#3C5E29D820773606
(4.099440) can0 18FEFF50#7349B04099BAAD23
(4.106188) can2 18FEFF50#CFD3A96C9EEF20A9
(4.109706) can0 18FEFF10#293DA7BAD5AD55D6
(4.117409) can0 18FEFFF4#3E4022322A545752
(4.124612) can1 18EEFFF4#86D3
(4.128492) can0 18FEFF31#C3ECA9DA
(4.134226) can2 18FEFF40#509ADC20
(4.141819) can0 18FEFF00#FD176E93D9E58BB8
(4.143673) can0 18F0FF50#30F15EA29D732251
(4.144710) can1 18FEFF50#EB18
(4.147536) can1 18FEFF50#B471
(4.153994) can0 18EEFF40#96FF8BBF
(4.159227) can2 18EEFF10#66CE
(4.164151) can2 18FEFF40#654157FBF29EC3E9
(4.171242) can0 18FEFF10#C7EE507ACB2DC7E3
(4.177199) can1 18FEFF50#F652852A33C36F54
(4.179295) can0 18EEFF40#7A3903C7BBC9AC88
(4.187789) can0 18FEFFFF#C47594C8
(4.192604) can2 18EEFF50#84639E07
(4.200278) can0 18FEFFF4#B459D894F3F2718B
(4.206338) can1 18F0FF40#6007582D546EF895
(4.209441) can0 18EEFF31#048FD6324F0BE20C
(4.217051) can1 18FEFF00#8987A2B3A0A45EE7
(4.226283) can0 18FEFF50#AAA8545567C8CFFF
(4.228407) can0 18FEFF40#BDE47614DDFC7E08
(4.233601) can2 18FEFF31#24ED26B3D55D2A21
(4.243106) can2 18FEFF10#C67C9F448B084D82
(4.247221) can2 18FEFFF4#A94EC34406BB24D2
(4.255822) can2 18FEFF20#CEEE50824E303E7B
(4.262531) can2 18EEFF20#A0AE4C9E7604127A
(4.267119) can1 18F0FF00#848F
(4.268395) can0 18FEFF50#80AE9079D4DE96EA
(4.272767) can0 18FEFF50#2D2B3B4D9A2214E6
(4.281089) can2 18FEFF31#43DC0ED948957D09
(4.290868) can0 18EEFF40#9E9016CCEA2D1489
(4.297308) can0 18FEFF50#A2FEB1943B4232F9
(4.299000) can2 18FEFF31#EEEDC8A5
(4.301665) can2 18FEFFFF#E79D5793F6583FDE
(4.303477) can0 18FEFFFF#3B6164FF
(4.311835) can1 18FEFFF4#C8909096ED2748BF
(4.317649) can1 18FEFF31#7762
(4.322821) can2 18FEFF20#8B27DB4DD5331CA6
(4.331997) can0 18FEFF31#006E000501BE0007
(4.339367) can2 18FEFF50#7C2B9265F8333F2D
(4.346552) can1 18FEFF40#132E9472
(4.350727) can2 18FEFF50#06FED6631711C5C4
(4.355730) can2 18FEFF40#AF70919DC140D20E
(4.364110) can2 18F0FFFF#6BC887FB4F86793D
(4.371823) can1 18FEFF50#47AF162A
(4.379185) can2 18FEFFF4#C3EF3570D5EED62F
(4.383164) can0 18FEFFF4#76F1EFBF056AF7B3
(4.385067) can1 18FEFF00#DE36641029088D0F
(4.390697) can0 18FEFFF4#75D1B2E68C68268D
(4.393363) can1 18FEFFF4#5047EB04
(4.397487) can0 18FEFF20#E4DBEFE7
(4.403604) can2 18FEFFFF#E40C
(4.408578) can2 18FEFF00#6397A9FD7DE0E4AF
(4.416333) can2 18F0FFFF#7CE89FDD6CAD12BE
(4.419776) can1 18FEFF10#AF1253EB97793C1F
(4.425242) can1 18FEFFF4#EBADBD50
(4.431052) can1 18FEFFF4#E3FE9DB8FAE0F755
(4.435275) can2 18FEFF20#4364
(4.439567) can2 18FEFF00#4CCFB9050FFB5BCE
(4.443745) can2 18F0FF31#6FB27780
(4.450850) can1 18FEFFFF#D93A2910
(4.460399) can1 18FEFF50#3C55
(4.465462) can0 18FEFF10#C25CD8973819A61E
(4.471654) can1 18EEFF31#8FE2
(4.473901) can0 18EEFFF4#317B09D1B2BE5DEB
(4.483659) can0 18F0FF40#3052
(4.488126) can1 18F0FF40#FC55
(4.497712) can2 18FEFF50#EF88
(4.498858) can2 18EEFFF4#D947936FE1355A92
(4.506512) can0 18FEFFF4#4AC1DCB5A691FBD9
(4.509043) can2 18FEFF31#87A74169
(4.518599) can1 18EEFF00#A592F581A73D234A
(4.525230) can1 18FEFF00#674690EB440E19D7
(4.528419) can0 18FEFFFF#808F97C3
(4.537501) can0 18F0FFF4#3563
(4.543204) can1 18FEFF31#446906B571697322
(4.549532) can1 18FEFF31#27A977E346438E43
(4.556593) can0 18FEFF00#62054428FDE91329
(4.566191) can1 18FEFFF4#A0BBD16EFA00105B
(4.574893) can2 18FEFF10#CC720A762AA0BAA0
(4.579200) can1 18F0FF10#4BB66DF9F9838B92
(4.588505) can0 18FEFF40#35B1FF0372B4B9A1
(4.596580) can0 18F0FF10#810D
(4.601926) can1 18FEFF10#B22CB7BB
(4.609261) can2 18FEFFF4#2367
(4.610327) can0 18FEFF40#16FFC407EDE18432
(4.613717) can0 18FEFFFF#E189F422C169F248
(4.623322) can2 18FEFF31#BBC72A232FC2989E
(4.626904) can0 18FEFFF4#C9F6FD5A
(4.628446) can0 18EEFF40#A3BA46B2B50EF349
(4.633436) can0 18F0FF00#DFE9DB1247142342
(4.641046) can1 18FEFF20#82B97C109E5CB2D7
(4.644747) can2 18FEFFF4#427FA865EE7F7681
(4.652038) can0 18FEFF50#5352C5FB4283E9A7
(4.654385) can1 18F0FFFF#4C9A
(4.662178) can1 18FEFF00#D6D71582
(4.668478) can1 18FEFF00#55FF6D7FF94DB885
(4.675919) can0 18FEFFFF#9D9512BF6DFC4000
(4.683774) can2 18FEFF20#2D6896F79AC3C9F6
(4.691289) can2 18F0FF50#75329A1F390BC585
(4.698966) can2 18F0FF10#0F740BF9699AEC76
(4.701684) can2 18F0FF20#27763E2FC42D7304
(4.710902) can1 18F0FF00#A26E6926
(4.714686) can0 18FEFF20#003ACC7768394E7C
(4.719353) can2 18F0FF40#FECC92D60DB258F8
(4.728448) can2 18FEFF20#5384D82A5053D98E
(4.737819) can0 18FEFF50#370F1CE8A99D186B
(4.747788) can1 18FEFF10#6FAE31832CAF51BC
(4.749151) can0 18FEFF50#E88A
(4.754086) can2 18FEFFF4#017A
(4.763051) can1 18EEFF50#DFF8D946B4F2EAA8
(4.770051) can2 18FEFF31#5357DC83
(4.779204) can1 18EEFF31#2F775C59A291A854
(4.787954) can1 18FEFFFF#67A9
(4.789781) can2 18FEFF20#D4AB
(4.795035) can1 18F0FF00#C52E
(4.803153) can1 18FEFF40#8122F678
(4.812652) can2 18EEFF10#AAF0
(4.821397) can1 18FEFF40#1B88E43965D8072D
(4.827661) can1 18FEFF40#B69EEE0B4D4F7919
(4.829723) can0 18F0FF50#0F018DFED2CA8F5A
(4.839061) can1 18FEFF31#88DB
(4.843403) can2 18FEFF50#1F11
(4.846940) can1 18FEFFFF#0D15DB759E863813
(4.849983) can1 18FEFF20#F882FA47
(4.853844) can0 18FEFF50#F701
(4.862261) can1 18FEFF50#343E
(4.868246) can2 18FEFFF4#B7D8
(4.877923) can2 18EEFFF4#72EB
(4.881028) can2 18FEFF20#80B1B2CC2464DAD0
(4.885522) can2 18EEFF20#2782AEA93BCF498C
(4.888608) can0 18FEFF00#FDCDA453F152F344
(4.891626) can1 18EEFFFF#89FB28B7
(4.895386) can1 18FEFFFF#D2B97FD1B1A2DAAE
(4.900570) can2 18FEFF31#373E
(4.906328) can2 18FEFFFF#CB9D
(4.912917) can1 18F0FF00#01AF9123166DB70B
(4.918597) can2 18FEFF20#F365
(4.920387) can2 18FEFF40#000000006E000301
(4.923665) can2 18FEFFF4#B715
(4.931086) can0 18EEFF20#AAA99600C248E7BF
(4.937673) can1 18F0FF00#6860D7E609CF8A6A
(4.939933) can0 18EEFF31#A7974D44A011AB4A
(4.945799) can2 18FEFFFF#28FA4B356322FD53
(4.950524) can0 18EEFF20#29700B2B
(4.960117) can0 18FEFFF4#5F5FEA71BAB14153
(4.967851) can0 18FEFF50#D13A
(4.976296) can2 18FEFF00#92911389
(4.982669) can1 18FEFF10#18A3AEAE5151FCD5
(4.988696) can2 18F0FF31#36DA3BE822071D33
(4.996583) can2 18FEFF31#163136753895EE2F
(5.002742) can1 18FEFF10#9792A7C29C751E6A
(5.007851) can0 18FEFFF4#B291BD294D0204CA
(5.013140) can2 18FEFF10#86919BB124B2420C
(5.022533) can0 18FEFF31#FFCD
(5.025528) can0 18EEFF00#BF63
(5.031266) can0 18EEFFF4#195406AED98C48F2
(5.038731) can1 18FEFF20#0DE51E2A00D10E08
(5.041753) can1 18FEFF10#F4F268CF09E442E4
(5.044136) can0 18FEFF31#1D89F4F71FE8A15A
(5.051563) can0 18FEFF31#34347E1A02EE9721
(5.053836) can0 18FEFF00#174EFB1C7F2225E6
(5.054854) can2 18FEFF20#FA37BE01
(5.055870) can2 18FEFF20#C4200E834B6983BB
(5.061556) can0 18FEFF00#923734E53C3AB1A8
(5.063373) can2 18FEFF00#C09B08870D1DE876
(5.072897) can0 18FEFF40#C5FC80386208D98D
(5.074200) can0 18EEFF00#0EA74431B90B43AE
(5.077696) can1 18FEFF20#F278
(5.086900) can2 18F0FF40#F9A8AD83C65A7489
(5.092903) can2 18EEFF10#97D3C9DD63F7DF0D
(5.099483) can1 18FEFF31#FF9FD06BC5D34788
(5.106021) can1 18EEFFFF#6EDC0893
(5.109809) can2 18F0FFFF#A8ED2159
(5.114679) can1 18FEFFF4#B883D5E1F3ECD58F
(5.122300) can2 18FEFF10#EC29
(5.124265) can2 18FEFFF4#33A68CF3190863E8
(5.132491) can0 18FEFF20#B26D7471696A60CA
(5.137385) can0 18FEFFFF#12E7C2DED73CD4A9
(5.144204) can0 18EEFF10#E3F2
(5.148429) can0 18FEFF31#1B109D3D44D78504
(5.155134) can0 18FEFF40#A3CE7AB66D1FD9EE
(5.157835) can1 18FEFF40#13261F1BCE337DD5
(5.160771) can2 18FEFF31#55C0F5141DF17172
(5.165835) can1 18F0FF10#A0196CFB69439254
(5.173877) can0 18EEFFFF#9E9BC8CEA77D6C11
(5.175455) can2 18EEFF20#56D84102
(5.179494) can1 18FEFF20#EF93BF6F1EC13216
(5.182804) can1 18FEFF40#863D31A4
(5.187408) can2 18EEFF40#BAB022063EF0DF66
(5.196420) can2 18F0FF50#E979910E1D7CF8C8
(5.202967) can1 18FEFF31#5F61A560
(5.207031) can1 18FEFF40#54FC5C0D
(5.210566) can0 18FEFF40#DE72A8BE0C5E042C
(5.218017) can0 18FEFF20#E0BFD655168700A7
(5.223739) can0 18FEFFF4#6B6DAAA35AA1323B
(5.232365) can2 18F0FF20#D4D9BC8529EB54AC
(5.238574) can0 18FEFFF4#0F0274D5
(5.244394) can1 18FEFF10#2CD47898E9E606EE
(5.249551) can1 18F0FF10#37FEF281527AEAC2
(5.256712) can2 18FEFF31#38F7
(5.263924) can0 18FEFF50#35A3727F61179D5F
(5.272792) can0 18EEFF10#F60D3E20FB295EE7
(5.280552) can2 18FEFF00#C2A2D277
(5.288814) can0 18FEFF50#FCFC
(5.294080) can0 18FEFF20#52249F3404637F6B
(5.299197) can2 18EEFF31#5C6AD033E57E3067
(5.302220) can1 18FEFFFF#F6B119FD11B5C0EE
(5.307654) can2 18F0FF00#A18CE9227330BD16
(5.313054) can2 18FEFF31#235C
(5.321037) can2 18FEFF40#29B3BD66443BB921
(5.328586) can0 18FEFF40#FE989037E038A57B
(5.335741) can2 18FEFF40#CA10EA3C3EAF6148
(5.345024) can1 18FEFF00#89E28EC014DEB747
(5.353295) can2 18FEFF50#0FA27AE59E1F105B
(5.354573) can1 18FEFF00#BD3EF21C523EDFFF
(5.362605) can0 18EEFF00#F56E6CF27F2F62EA
(5.369091) can1 18F0FF50#C8120E03829BA81C
(5.378920) can0 18F0FF20#628D46212B3E29E3
(5.382160) can0 18FEFF10#A622DDB993DCBC23
(5.386873) can2 18EEFF00#43B953CAD683C50A
(5.388024) can0 18FEFF00#F6C761172E98063C
(5.396710) can2 18F0FF20#E2AAB90CAEFF9FD2
(5.398818) can0 18FEFF31#7FDF381B3B3B3D82
(5.400560) can1 18FEFF10#8BAA826D9EF379AE
(5.402616) can1 18EEFF00#828D116FB3215E38
(5.403755) can0 18EEFF20#F4BBD7248A57B04A
(5.406101) can0 18FEFFF4#940D13846A7C825C
(5.412621) can1 18FEFF00#89958A45D297E772
(5.421646) can1 18FEFFFF#3415
(5.425851) can2 18F0FF50#A87E791021799C15
(5.430441) can0 18FEFF40#236726964F6C6DFC
(5.433837) can2 18EEFF00#39CD
(5.435434) can1 18FEFF50#5556
(5.441557) can1 18FEFF10#BE7BC349BE643C61
(5.449266) can0 18FEFF00#F052ECFE
(5.453177) can0 18FEFF40#4D8D
(5.461000) can2 18FEFF00#368ECBB2
(5.463740) can2 18FEFF31#006E000501BE0007
(5.473585) can0 18FEFF40#40CA7943D2849538
(5.477666) can0 18FEFF40#836B919E2703EC1C
(5.485773) can1 18FEFF10#A8E78E47
(5.490942) can0 18FEFFFF#66FA158DB4AE4CD4
(5.492848) can2 18FEFFFF#7AA51FAF946F9B43
(5.502600) can2 18FEFF50#E32E874DC921DFF1
(5.506289) can2 18FEFF50#0AC0
(5.513937) can0 18FEFF20#0DEAF28DC05EB497
(5.515420) can2 18FEFF31#EFDB74344E669844
(5.525110) can2 18FEFF40#AEAA962B29DE96BC
(5.526452) can2 18F0FF10#405086D0
(5.528321) can0 18FEFF20#0C5D5D7269EA0C4E
(5.535988) can1 18EEFF00#959B
(5.543138) can1 18FEFF10#C757B56CD7482D53
(5.547563) can1 18FEFF20#ED3A66755F8D3017
(5.552087) can1 18F0FF31#08E0E4CBEE7566DB
(5.559255) can1 18FEFFF4#76D86C909356C4CC
(5.564397) can1 18FEFFFF#D14904CBCECAA76D
(5.570546) can1 18FEFF50#5EFF0F5677E2A4EA
(5.578583) can1 18EEFF10#9F7A7B0D
(5.582657) can1 18FEFF50#6781
(5.587925) can0 18FEFF10#E94E
(5.594279) can1 18FEFFFF#14A5E675BDCE4BC8
(5.603635) can0 18FEFFF4#00BE26F54F0B0F80
(5.607495) can1 18FEFF40#ED9CC35FAD834D41
(5.612801) can1 18FEFFF4#72F84C06AE6BF2A1
(5.620922) can2 18F0FF31#4C71111FE6F5FE87
(5.623738) can0 18FEFFF4#81EC69D2EEC67288
(5.628208) can2 18FEFF50#588C
(5.634307) can2 18FEFF00#3B10
(5.642652) can2 18FEFFFF#283785789AA90073
(5.652613) can0 18FEFF50#BF6215CD865A544A
(5.654232) can1 18FEFFFF#C29B6F98C1DA2243
(5.660194) can0 18FEFF00#5850E831
(5.662613) can2 18EEFF00#6F1177972A98BDA1
(5.664030) can0 18FEFF20#20EECE05
(5.671483) can2 18FEFF10#B509DC43
(5.680250) can0 18FEFF00#518C6D5B
(5.684900) can2 18FEFF10#405B733B
(5.688480) can0 18FEFFF4#EE20C527
(5.693890) can0 18FEFF00#964C022D1EC6A0CC
(5.696849) can1 18FEFF10#2AB68F608668234D
(5.705889) can2 18F0FF50#5A611C79567B3810
(5.715252) can0 18FEFF20#16FD0A2535DE6ABF
(5.719725) can1 18FEFF20#3698
(5.725324) can1 18FEFF00#C7FA3EEA
(5.729959) can2 18F0FF31#BA8F0282C030B952
(5.735604) can1 18FEFF00#9D724914981157D7
(5.738167) can0 18FEFF31#3E1092677A1167A5
(5.743384) can2 18FEFF50#B0A15796B1E2E83D
(5.747468) can0 18FEFF00#7DBD76CC8B2E1DE8
(5.751058) can2 18FEFF31#5D941A5F4E92E552
(5.760713) can0 18EEFFFF#CC092916
(5.763069) can1 18F0FFF4#38232EC6B23742D1
(5.766548) can2 18FEFF00#5B9B83E0ABB286A1
(5.775717) can0 18FEFF00#C37D
(5.780974) can1 18FEFF50#9875
(5.788403) can0 18EEFFFF#1E04F88B60922D50
(5.793725) can2 18F0FF00#B21FC974AD31922B
(5.798195) can2 18FEFFFF#FBF7C3FC
(5.806057) can1 18EEFFF4#E6093F1D
(5.813179) can1 18F0FF10#43E8CC4A
(5.823132) can0 18F0FFF4#8A60291D54CC3DE7
(5.826709) can0 18FEFF31#B22DB8F2DDF96B79
(5.829945) can0 18FEFF50#B831E3DF
(5.838554) can2 18FEFF20#E379B6D0680272D5
(5.846718) can2 18FEFF40#445BEC4C13E3880A
(5.853554) can1 18FEFFFF#0B9747EE
(5.857767) can0 18FEFFF4#FEF2
(5.860808) can0 18F0FF31#C4801892BB0842D1
(5.866113) can0 18FEFF31#A4C4
(5.871512) can2 18FEFF20#B08FAECC3115CEEC
(5.877369) can0 18FEFFFF#BB14
(5.881671) can2 18FEFFF4#419EE02B
(5.891259) can2 18FEFF50#60DC
(5.892435) can2 18FEFF31#32C0
(5.900341) can2 18FEFF20#0BEB4E0D
(5.909245) can1 18F0FFF4#5A76DB7232473E18
(5.916569) can2 18F0FFFF#2FBE
(5.925999) can2 18F0FF00#3B10F17E486CDD4C
(5.934383) can0 18F0FF40#A8F3A978AD5A2771
(5.940333) can1 18FEFF50#2AF2
(5.946078) can1 18FEFF00#3AEA9D4113B031D0
(5.951412) can1 18FEFF31#EA051052240066A5
(5.954504) can1 18FEFF31#409DDA54
(5.963158) can1 18FEFF40#72361177619FAFB4
(5.969741) can2 18EEFF20#12494ED18803D38D
(5.979226) can1 18FEFF00#BFBB7A086C25E27D
(5.987548) can1 18FEFFFF#2EE9
(5.991695) can0 18FEFF00#B0B915A21AD2D9C1
(5.993131) can1 18FEFF50#D0D8F803
(6.000609) can2 18FEFF31#0E4B46873C63480B
(6.004994) can2 18FEFFF4#6980
(6.006704) can0 18FEFFFF#3AFE
(6.015594) can1 18F0FFFF#9429
(6.024506) can1 18FEFF20#E8B8A24A2A8CB656
(6.029252) can2 18EEFF31#40BD55BEF4422670
(6.034790) can1 18FEFFF4#5DDC5A8FE21138D7
(6.040257) can0 18FEFF20#1539323424307612
(6.041843) can0 18FEFF22#006E000501BE0007
(6.051720) can2 18FEFFF4#9A56D40D
(6.057692) can1 18FEFF31#7B196D6A
(6.066934) can2 18F0FF50#97C52BD7EAF0873C
(6.075635) can2 18FEFFFF#3410E524
(6.079969) can1 18FEFFFF#79B8735D4F04CF2C
(6.087505) can0 18FEFFF4#28C2BCAC1DE4FD50
(6.091766) can0 18FEFF20#4DDD5584E74EF9F9
(6.098832) can0 18FEFF40#247F5D522674668F
(6.105140) can2 18FEFFFF#4A3057D57FEE8BEC
(6.106575) can0 18EEFF40#485A5B64
(6.112344) can1 18FEFF40#8398CB8449E3BCA2
(6.117175) can1 18FEFF20#FF465E7E2215AB8A
(6.120369) can0 18FEFF20#8658A432F9BB3FF4
(6.124614) can0 18FEFF00#F67335C382FAF7DC
(6.126621) can2 18FEFF31#95EB11BA8262F262
(6.134135) can0 18FEFF50#52746DE3
(6.135607) can2 18EEFFF4#531CD42B
(6.140632) can0 18FEFF20#C1D6
(6.146188) can2 18FEFF10#A9FBB7949FF5D6A9
(6.155119) can2 18FEFFFF#6185E4633597BD0B
(6.161493) can1 18FEFF50#9C706064
(6.162820) can0 18FEFF10#EFE3
(6.167014) can2 18EEFF10#C464E48E569F51C6
(6.173219) can0 18EEFF50#E8FC
(6.179412) can2 18FEFF31#49B1D0A9266BD70B
(6.189362) can2 18FEFFF4#5668
(6.190404) can0 18FEFF10#B9BA13BD913C51D3
(6.193742) can2 18FEFF40#BB6F16E56528CF42
(6.200368) can1 18FEFFF4#1ECF3737
(6.203943) can1 18F0FF50#143EEF2F
(6.213423) can0 18F0FF50#9EE0
(6.219729) can1 18F0FF00#E1ECF889
(6.225352) can0 18FEFF40#68A3B59C
(6.227480) can2 18EEFF50#E1FB317C3AB93A7B
(6.233405) can0 18FEFF00#C79566720495927A
(6.237389) can2 18FEFFF4#469E5BEA75376BF4
(6.241076) can1 18FEFF00#AB14B16C48B831B2
(6.249341) can0 18FEFFF4#1A08
(6.250693) can2 18FEFF20#6171442416E8931A
(6.258813) can1 18FEFF50#F32DC5B16E294EF0
(6.268163) can2 18FEFFFF#108DA7188FB5F60D
(6.274040) can2 18FEFF50#F13B
(6.281979) can2 18EEFF20#4BC0701022B1D2AA
(6.283537) can0 18FEFF20#91C4FBED68295845
(6.286115) can1 18FEFFF4#BADF5C90A1A60F58
(6.293843) can0 18FEFF31#AECB3254
(6.301808) can1 18FEFF40#7A9875D34160F741
(6.304883) can0 18F0FF31#92AF38818B736746
(6.309090) can0 18FEFF20#BFDF81BDF05CB5FA
(6.318874) can2 18FEFF40#38386782
(6.322759) can2 18FEFF50#3366256F874BDFA8
(6.325864) can1 18EEFFFF#24AC97E5
(6.327304) can0 18F0FFF4#F1C1C914E1183F0B
(6.328762) can2 18FEFF20#D5A8
(6.338170) can0 18FEFFFF#F52A684F
(6.339992) can2 18F0FF10#27D65B442E604B62
(6.348741) can1 18FEFF50#76EA1ACC3C480688
(6.352604) can0 18FEFF20#11F9385A7A30AD3D
(6.357108) can1 18FEFFFF#28AFB53FD23BBAAC
(6.365703) can0 18FEFF31#0FDF69E9D675C348
(6.368392) can2 18F0FFF4#238F41BC54827F4B
(6.377407) can1 18EEFF50#E2483CCB5BF791CC
(6.386005) can1 18FEFF31#6047B58E
(6.388737) can1 18F0FF40#744EED2239F3B1C7
(6.394165) can2 18FEFF20#575E61350B561548
(6.395244) can1 18EEFF20#77AF
(6.403303) can2 18FEFFF4#3FEB804AC60126DC
(6.405421) can1 18F0FF40#109DD3D35259363C
(6.411368) can2 18FEFF10#6A6B2B6AF44582CA
(6.415288) can0 18FEFF31#7A4B
(6.425229) can1 18FEFFFF#8CC3A1378C16CD0F
(6.431703) can1 18FEFF00#F341
(6.434135) can2 18F0FF40#FFD9EBBB6C4CA23D
(6.443892) can0 18EEFF00#6A23
(6.448061) can0 18FEFF40#C0A238B6587D7701
(6.452068) can2 18FEFF40#BF07F5718DEA672B
(6.457019) can1 18FEFF00#B2234651CE3FD876
(6.463434) can1 18FEFF50#0A6C
(6.472978) can0 18FEFFF4#73C77597622FE947
(6.478824) can1 18FEFF40#5D989FC2CA273F90
(6.487206) can0 18FEFF00#59F67D8C5B6C7502
(6.489995) can0 18FEFF00#4068AF36CBE4545A
(6.499462) can0 18FEFF00#9AAC
(6.507691) can0 18FEFFFF#01651D60F6D8B4E0
(6.511334) can1 18FEFF31#1274
(6.512392) can1 18FEFF50#63D0546072D03467
(6.520164) can1 18FEFF50#63788367
(6.527463) can0 18FEFF10#911B9322E15AB7D1
(6.537236) can0 18FEFF31#4BF1E242321AB6F4
(6.543399) can1 18FEFF50#FC5C
(6.551782) can0 18FEFF50#B6032361FEB9906F
(6.554742) can0 18FEFFFF#6208382F
(6.558243) can2 18FEFF40#7C449EB58566B761
(6.560707) can2 18FEFF50#A93DD14611A8BAEA
(6.568439) can1 18FEFF50#2381ED8F6246BFEE
(6.576718) can2 18FEFF00#BFAE
(6.580158) can2 18EEFF31#C673AE0E
(6.590150) can0 18FEFF31#D8558AB4
(6.596548) can0 18FEFF20#1AAEBA9BFA258FA7
(6.605060) can2 18FEFF40#006E000501BE0007
(6.609630) can2 18FEFFFF#3D5674EC439BEA45
(6.612598) can2 18EEFFFF#0110
(6.615863) can1 18FEFF31#A679
(6.623477) can2 18FEFF20#6E0CC9C8BD06CF7B
(6.633317) can0 18FEFF31#97583EFF
(6.641579) can1 18FEFF00#EB732C2932DEEF33
(6.644834) can1 18FEFF00#440FA2D8
(6.647008) can1 18FEFF00#F3ACC767450BA675
(6.653189) can2 18FEFF10#51C02373
(6.662642) can0 18FEFF00#F3F9
(6.665408) can2 18FEFF20#1DC91A519BFB17B0
(6.666640) can0 18FEFF40#2D03A8F76B46E90C
(6.670184) can0 18FEFFFF#FEA51C45C05FC037
(6.676033) can0 18FEFF50#5A28F362030D38C1
(6.683062) can0 18F0FFF4#BE0C6138A476D174
(6.691486) can1 18FEFF10#35D42D15818452D6
(6.698925) can1 18FEFF10#2F20B812FC74382D
(6.702394) can1 18EEFF31#3763
(6.705923) can1 18FEFFFF#62D635475ECCC37C
(6.708412) can0 18FEFF50#8FEB341FE5DF89FA
(6.717462) can1 18FEFF10#6EB7A89D
(6.722039) can0 18FEFF40#03171A2A87F13C23
(6.726520) can0 18EEFF10#D362D5D11A2C2580
(6.734090) can2 18F0FF20#6A8811CD
(6.736992) can0 18FEFF31#67552574789A0C0F
(6.738104) can1 18FEFF00#5DE36F210BD573C7
(6.746485) can0 18FEFFFF#F534
(6.751169) can1 18FEFF40#AD2C3DC6
(6.760272) can2 18FEFF31#133C1916
(6.765122) can2 18FEFF20#66249042BC3DDDCD
(6.773461) can0 18FEFFF4#17D2A87AD7E89934
(6.782022) can2 18EEFF40#33F9ADB53BE72717
(6.783720) can0 18F0FF40#819C19B29C773BC7
(6.792856) can0 18F0FF40#E0708BD94EE88B0F
(6.794676) can2 18F0FF10#2A505779C525EAA4
(6.798557) can2 18FEFF31#78DE3FE2785AFE59
(6.805865) can0 18EEFF00#0DBDA0A3
(6.808704) can2 18FEFF00#14F4934609071ED9
(6.810856) can2 18EEFFFF#E6D2
(6.817975) can2 18FEFF40#B70A4985
(6.819188) can1 18FEFF20#9106D6734CAE5672
(6.826368) can1 18FEFFF4#3331D0D7AE2DA568
(6.831581) can2 18F0FF10#FB8BB874BC5DB3B3
(6.835433) can0 18FEFF20#9D91
(6.837608) can1 18FEFF50#4875
(6.847028) can2 18FEFFFF#6080C962CFF5519D
(6.851746) can0 18FEFF10#EF3CA032DCB2C75D
(6.856024) can2 18EEFF50#061FCAA49DB2B6EB
(6.865067) can2 18FEFF50#D17240188B7B3AF7
(6.866265) can2 18FEFF40#3185
(6.871557) can0 18FEFF10#8C552F6A
(6.878456) can1 18F0FF40#D687
(6.888236) can2 18FEFF10#C7BB
(6.897592) can2 18FEFFF4#6A2E89459B328C06
(6.898813) can1 18FEFFFF#C11EDAFC
(6.906238) can0 18FEFF00#B0558883D07D687B
(6.914009) can2 18FEFF31#5D4E
(6.917936) can0 18FEFF31#8357
(6.919934) can1 18EEFF50#5BCDC06042B34087
(6.927743) can0 18FEFF20#63F588A25ACE6654
(6.928877) can1 18FEFF10#04AF68DD70ACD3EC
(6.930151) can0 18FEFF20#7AF6434C
(6.933154) can0 18FEFF10#498D0A805412996C
(6.938715) can2 18F0FF40#C866
(6.942996) can1 18FEFFFF#1057
(6.946164) can2 18FEFF00#D4113253
(6.954996) can2 18FEFF00#5E8DCC15
(6.960058) can0 18FEFF00#84F49B8FBA6FCBE4
(6.961219) can1 18FEFFFF#8DF1818A
(6.962611) can1 18FEFF31#3DABC4FEF268F207
(6.966245) can0 18F0FF20#1EB477FA11D38F93
(6.971552) can2 18EEFFF4#FB38
(6.977210) can1 18FEFF50#CD93823C30469920
(6.980883) can1 18FEFF10#C8B1A8AE8A7A882F
(6.989261) can1 18FEFF50#07FEF864
(6.997914) can2 18EEFF40#D5B0056D3F6CC328
(7.001408) can1 18FEFF31#C6FCDA4671CC32F4
(7.005146) can2 18FEFF00#EE9AC794467D537C
(7.014867) can0 18FEFF31#1EDD74243209AC9F
(7.023671) can2 18F0FF20#1DD85653
(7.027825) can1 18EEFF50#7B35
(7.028915) can2 18F0FF00#65113A93
(7.038768) can1 18F0FF10#0FA9
(7.041383) can1 18FEFF20#66D7A9EA7B573356
(7.043493) can2 18FEFF31#4404
(7.053258) can1 18FEFFFF#60FB
(7.055938) can2 18FEFF40#6F0030F3991062EC
(7.058360) can2 18FEFF10#9E7EFE1B
(7.067655) can2 18F0FF20#A41D63E63D061470
(7.074169) can1 18FEFF50#5917B44856A30DD2
(7.078969) can1 18FEFF31#9C81CD81189FFE7F
(7.080044) can1 18F0FF40#09A127288782331F
(7.081236) can2 18FEFF31#C4245D9DD022BAF9
(7.083101) can1 18EEFFFF#FE91E805E533197F
(7.087855) can0 18EEFF20#E13B208D3F5EC4CF
(7.093494) can0 18FEFFFF#888678C0
(7.096150) can1 18FEFF31#9A9566A72F3EAC21
(7.103811) can0 18FEFFF4#3918AB87F2ABCB32
(7.108720) can2 18FEFF31#CA42FE2D975D3304
(7.109814) can0 18FEFF40#006E000501BE0007
(7.118606) can2 18FEFF20#3D079EB2C9DADA78
(7.126445) can2 18EEFF40#0ED5CCC84FDEEAC3
(7.136151) can1 18FEFF20#BD4D13333042609F
(7.139709) can1 18F0FF20#AA88
(7.148425) can2 18F0FF31#A59833D8A1C1B6E6
(7.151024) can1 18FEFFFF#3FE4A610B37915E4
(7.160172) can2 18FEFF50#807CFA14BCBF728A
(7.165058) can1 18FEFF40#1CA8E5F4AAC4B743
(7.172570) can0 18FEFF40#55BA6734
(7.182317) can2 18FEFF20#566C29966165161F
(7.191828) can2 18FEFFFF#6A882038
(7.194191) can2 18F0FF20#69129698C3207B60
(7.203997) can2 18FEFF00#B01D82D6F0143019
(7.212719) can2 18FEFF00#23713FB9339930B5
(7.219151) can1 18FEFF50#84117807C072C1F3
(7.221940) can1 18FEFF50#54046A6AAE78A072
(7.223078) can2 18EEFF20#E2E9
(7.226786) can2 18FEFF40#51A987FE9B9B1D2A
(7.233973) can0 18EEFFF4#AA5F10ADE586DD25
(7.237992) can2 18FEFF20#66E5402A52D76B74
(7.245404) can2 18FEFF40#763775AD6389A659
(7.248855) can2 18FEFFFF#10B90951
(7.258811) can0 18FEFF50#8CAB30BA86D7BD09
(7.262438) can0 18F0FF00#F1C37DDB
(7.263817) can2 18F0FF50#9FAE452E
(7.271198) can1 18FEFF20#FC149971
(7.277990) can0 18EEFF20#F0DBC7D0
(7.279567) can1 18F0FF10#5DF6C9683DFD8C34
(7.285228) can1 18FEFF00#3AF237FABAB4D87F
(7.290717) can0 18FEFF10#FCD33BDF
(7.295446) can1 18EEFF10#25779698
(7.298126) can1 18EEFFFF#3EEC1EB7D0C0443E
(7.301515) can1 18FEFFFF#8AD8
(7.311462) can1 18FEFFF4#BCEF9290C8BA3114
(7.314707) can2 18EEFF20#24CE4DF39F2BC0A8
(7.323259) can0 18FEFF40#C089E8E4F9910BA9
(7.330629) can2 18F0FF10#6D13C7EBECFAAD27
(7.337005) can1 18FEFF40#617C6AC7C9A3351E
(7.340149) can0 18FEFF40#76AC
(7.345183) can0 18FEFF40#D599
(7.351935) can2 18FEFFFF#41B7D364A279E2B1
(7.356360) can0 18EEFFF4#F5A368BB2291FDC6
(7.357875) can1 18F0FF20#E25C
(7.364295) can1 18FEFF10#A1112977E7F71262
(7.374186) can2 18FEFF00#C9A27F2C
(7.381150) can2 18FEFF50#FBA9D04F
(7.382922) can0 18FEFFFF#832685A8CF10D734
(7.384083) can0 18FEFFF4#D18D7A9E
(7.390571) can0 18FEFF00#BC24
(7.391852) can0 18F0FF40#57B00EE55AAD433E
(7.393786) can2 18FEFFF4#3CC583E935C48261
(7.403407) can1 18FEFF50#337C
(7.406666) can0 18FEFF31#92D69D71433F3ED1
(7.414124) can0 18FEFF40#FE161CC87CA4CCE3
(7.419646) can2 18F0FF20#5CC7E5D0
(7.425290) can2 18FEFF20#E3BB
(7.429364) can1 18FEFF20#39252D12BD1FBC8B
(7.438201) can2 18FEFF10#C6E09957C162C7DF
(7.439364) can2 18EEFF40#874F757D
(7.444871) can1 18FEFF50#C2C00703FFE182EE
(7.452329) can2 18FEFF31#70531246
(7.460476) can1 18FEFFFF#C36A88AF74468D2D
(7.464986) can1 18FEFF20#AF0BB6C6
(7.466856) can2 18F0FF20#21D9919639942E50
(7.473400) can0 18FEFFF4#2B9FDD2D7C3857F4
(7.477797) can1 18FEFFFF#9EE45A91A3CAA1B6
(7.479415) can0 18FEFFF4#46FE6811
(7.483719) can0 18F0FFFF#B1581152EA157EA8
(7.490971) can1 18FEFF31#CFAE
(7.493773) can0 18FEFF40#A5F1A64E
(7.500142) can1 18FEFF31#C4A7214A3FFF52AF
(7.501710) can0 18FEFF00#F6B7
(7.503578) can1 18EEFF50#88A6C56C
(7.506194) can2 18FEFF20#CB4297407DB50688
(7.511481) can2 18FEFF00#24EDEF1F878ED0EF
(7.512646) can2 18F0FF00#03C18D98290102E6
(7.519958) can1 18EEFF20#FB6E
(7.521967) can1 18FEFFF4#6180C817FF0AA275
(7.529984) can2 18FEFF40#B148AA51F75CB826
(7.534732) can0 18FEFF00#1EFB
(7.544298) can1 18FEFF20#35EAC1C6
(7.552948) can2 18FEFFFF#F7930F3F06485FA4
(7.557570) can1 18FEFFFF#657ACD1BAF11D0BF
(7.565210) can2 18FEFFF4#F8F1
(7.569311) can0 18EEFF31#F886
(7.578918) can0 18EEFF50#2D7A93C1
(7.588397) can2 18FEFF10#5984
(7.597729) can2 18FEFFF4#655D61B1A31AC9CB
(7.607563) can2 18FEFF40#5184541E510BF415
(7.608897) can0 18EEFFFF#B8D77BAD09755278
(7.612202) can1 18FEFFF4#FA33
(7.616473) can1 18FEFFF4#2329B55DEC64B45F
(7.618797) can0 18FEFFFF#B25B345A7BBFEFE8
(7.627078) can0 18FEFFFF#F6299F43BBEB71FD
(7.634988) can0 18FEFF40#20E0E09D
(7.636739) can0 18FEFF00#51EA
(7.645589) can2 18FEFFFF#9CF3637A0F15D0E3
(7.649827) can2 18EEFF20#0802
(7.652420) can0 18EEFFF4#6CCFFD4124E75457
(7.659497) can2 18FEFF31#000000006E000301
(7.664736) can0 18FEFF10#A8B76308EF9C38FA
(7.673773) can1 18EEFF50#77D5B34FDC872D7B
(7.682234) can0 18EEFFF4#9ED4
(7.685301) can2 18FEFF20#E17B7330E12D05FA
(7.693734) can0 18FEFF31#FDB9CA0B
(7.695576) can2 18FEFF10#FE99
(7.704134) can1 18FEFFF4#4F25AB2B66D1C2B1
(7.708170) can1 18FEFF40#A748069D666FE736
(7.714572) can2 18EEFF50#53705E7325B54E8F
(7.723877) can0 18FEFF00#7A5C7683
(7.725329) can2 18EEFF31#ADCD1AB92A7A9A93
(7.732872) can2 18EEFF20#8D1B61D6AAC695F2
(7.735061) can1 18FEFFFF#EC78
(7.744631) can1 18FEFF00#CA7B0AE3FCFDD99D
(7.750303) can1 18FEFF00#F928
(7.755868) can0 18FEFF20#2CB616EF
(7.756900) can2 18FEFF31#F4CA8D7D273D9233
(7.760191) can0 18FEFF31#022C3A90
(7.766702) can0 18FEFF20#C29E
(7.769792) can0 18FEFF00#726CE40C7FA1553A
(7.776549) can0 18FEFF40#BBB14A6ED1342EC5
(7.778075) can2 18FEFF50#FF3F5F01
(7.781009) can2 18FEFFFF#71D970703DF982F6
(7.785304) can0 18FEFF31#6EAE95FADBC79BFC
(7.788618) can2 18FEFFF4#C127105D7544A05E
(7.792707) can1 18EEFFF4#7F112C307EE46755
(7.798952) can2 18EEFF40#58A5C354FB465B65
(7.801911) can2 18FEFF10#A4621B228D6AFCC6
(7.804685) can2 18FEFF20#BA29F9EE5FA74108
(7.808676) can0 18FEFF20#D05574441B1CAC81
(7.810273) can1 18FEFF20#30D7
(7.811576) can1 18F0FF40#36CA65CB635504E0
(7.815876) can2 18FEFF40#8B34176DD95094A9
(7.824636) can1 18EEFFFF#B9F0
(7.827078) can2 18FEFF31#40D28ED5C6ECEC68
(7.831864) can0 18FEFF50#D596
(7.839929) can0 18EEFFFF#B8646E34CFA3A76C
(7.843933) can2 18FEFF20#EA31
(7.847133) can2 18FEFF20#27B06137881199B6
(7.854212) can2 18F0FF00#F5D65FFC
(7.860135) can2 18FEFFF4#D7761E97A71FA266
(7.861810) can2 18FEFF50#91E4
(7.868360) can2 18FEFF00#E500A25CC4EDEDE5
(7.871533) can0 18FEFF31#FAEE
(7.876495) can0 18FEFF40#2D0C408C4AD1F2BC
(7.882858) can0 18F0FF00#E76F91825E3EB12B
(7.892297) can2 18FEFF20#68F7706AE95EBE55
(7.900859) can0 18EEFF50#E0A1A93504603DC8
(7.908200) can0 18F0FF50#0B88
(7.918143) can2 18F0FF20#07C70801
(7.927653) can1 18FEFF10#52DA
(7.930824) can0 18FEFF50#435F
(7.933535) can2 18FEFF40#075261391A82E046
(7.939424) can2 18FEFF40#20F2783DF3F820F1
(7.948982) can2 18FEFF50#49171CF1114FC90E
(7.955690) can1 18FEFF10#B511EE5FB724DBF2
(7.962165) can0 18F0FF31#73AF22A5
(7.964499) can1 18FEFF31#AF389F429990BCBB
(7.971202) can2 18FEFFFF#D094B247C42D036B
(7.979078) can1 18FEFFFF#1B4D7BFB70637FD2
(7.986635) can0 18FEFFFF#3C5F9C31
(7.993646) can2 18FEFFF4#D964A879E780F9CE
(7.998824) can0 18FEFF50#8CC9
(8.002951) can0 18FEFF10#120093971D1BE055
(8.005291) can1 18FEFF20#A992B84BD1ADB7F6
(8.008574) can2 18EEFF10#C7771E123FC54856
(8.014841) can1 18FEFF31#96A2F7D1
(8.024156) can2 18FEFF50#1C9CCA52B7AA0A45
(8.026448) can0 18FEFF10#F87E79B7
(8.028626) can2 18EEFF50#925F
(8.035394) can1 18FEFFFF#E724475A1A22E01F
(8.041274) can2 18FEFFF4#20FCEF97E2D42830
(8.051183) can0 18FEFF31#A48D
(8.058548) can2 18EEFF20#9895C6C9915E83BF
(8.065296) can0 18FEFFF4#4AEAFA0A66B5DFCE
(8.069156) can0 18FEFF00#738F600CF881BB56
(8.074210) can0 18FEFF50#A542BF55B53F96BE
(8.076625) can1 18FEFFFF#55F23E643C77793A
(8.085772) can2 18FEFFF4#EC1B30A9D3A138DC
(8.087326) can2 18FEFF31#BEC5E023BBDE6754
(8.089174) can1 18FEFFFF#282C1111BB36BBAE
(8.092009) can2 18FEFFFF#29021970C02885E4
(8.094870) can2 18FEFF20#0B222585CDABF3E9
(8.097934) can1 18FEFF10#2ECABF1078CEA033
(8.103099) can0 18FEFF20#7537415A46ECEDDD
(8.110907) can0 18FEFF10#AEB9CE3BD835BC12
(8.117417) can1 18FEFFFF#539464267AFC8893
(8.125949) can2 18FEFF40#C9892582453779EF
(8.127461) can1 18EEFFF4#66FB1137
(8.137010) can1 18FEFF00#5A9F
(8.139538) can2 18FEFFFF#3BAF76AB3EED6A4F
(8.141386) can0 18F0FFFF#3C091688
(8.148404) can2 18EEFF00#E19B024CBD3080ED
(8.158286) can2 18FEFFFF#E2CE49AE021C9821
(8.165175) can2 18FEFF40#935876C7
(8.174164) can1 18F0FF31#40E2
(8.178973) can1 18FEFF31#9364DADD49666547
(8.185825) can1 18F0FF31#6A4D4D23FB062BD6
(8.193645) can0 18F0FFF4#9C3FB25062A85B1B
(8.199633) can1 18FEFF31#000000006E000301
(8.203949) can0 18FEFF00#7F5A52DC
(8.210404) can0 18FEFF40#2B1C0BDF57C0E70D
(8.216527) can1 18FEFF00#B865B0B91311FBF5
(8.221103) can1 18FEFF20#880E60F1E485AD50
(8.229346) can2 18FEFFF4#62A3B88BF2A47DF2
(8.231236) can1 18FEFF10#A754C313
(8.233499) can1 18FEFF40#9D1A8FB02A308619
(8.243140) can0 18FEFF31#FA509C4FB948034C
(8.245301) can2 18FEFF00#226D5F7D9DD9EB1F
(8.252033) can0 18F0FF20#EA8E9ED74E87EB70
(8.253330) can2 18FEFFF4#2B083C0B
(8.260085) can2 18F0FF31#1CB2168136DABDBC
(8.266696) can2 18F0FFFF#266B
(8.275070) can2 18FEFFF4#6392F94C
(8.278622) can2 18FEFF20#DE21
(8.279835) can2 18FEFFF4#14408CCC0749CD55
(8.287038) can1 18FEFF40#64D3
(8.295534) can1 18FEFF31#80502CBA07AFDE1D
(8.303387) can0 18FEFFF4#6B830BA2E81975BA
(8.311643) can0 18F0FFF4#62DD
(8.315757) can0 18EEFF20#8468
(8.320503) can2 18FEFFF4#46F49842
(8.328252) can0 18FEFFFF#2C1E48B464896F4D
(8.336229) can0 18EEFF20#18917BD7
(8.344089) can1 18F0FF20#C3424FDCBB64B233
(8.346298) can2 18FEFF20#3872
(8.352675) can1 18FEFFF4#68DDB0C6A993584F
(8.353769) can0 18FEFF40#166C7420
(8.360982) can0 18FEFF00#271D6F4A
(8.369530) can2 18FEFF50#F057
(8.377443) can2 18F0FF20#73BC84A9
(8.384300) can1 18FEFF40#8532943E18AB09B0
(8.388790) can2 18FEFFFF#D4117CA3
(8.398474) can1 18F0FF00#3543C85746C14C85
(8.405551) can0 18F0FF20#9D193F9BD1487C1F
(8.413174) can0 18F0FF31#93310C1B
(8.423067) can1 18FEFFF4#36C0146D551A522A
(8.431674) can0 18FEFF20#E6A41F15
(8.436569) can1 18FEFF00#6AF3D780
(8.441647) can0 18EEFF00#D9461D879897036D
(8.444377) can2 18FEFF31#50C1
(8.447713) can1 18EEFF40#AD5B0DC2E031D0CC
(8.457679) can1 18FEFF20#BB9E
(8.467221) can2 18FEFF31#82638096
(8.469233) can1 18F0FF40#D8AF3AD233A8346D
(8.474579) can1 18F0FF10#2FAE3250
(8.479389) can2 18FEFF50#BD48693610C1CADB
(8.483255) can0 18EEFF31#77816389
(8.491109) can0 18FEFF10#567A
(8.492122) can1 18F0FF31#20388FB3
(8.497850) can1 18FEFF31#BC773A5FFD583C30
(8.502410) can2 18FEFFF4#E0C5A1E5FCB8D33B
(8.505279) can0 18EEFF50#6E83
(8.508247) can1 18FEFF20#5FBA
(8.512129) can0 18FEFF10#AA09
(8.519790) can0 18F0FF20#D147
(8.526088) can1 18FEFF20#99549F9428637C9E
(8.530772) can0 18FEFF00#FD38
(8.537153) can2 18F0FF10#37E38FEB
(8.540911) can0 18FEFF50#863925DF
(8.546468) can2 18EEFF20#FA5F137B
(8.552725) can0 18F0FF20#2B15B5D5DB21F172
(8.555274) can0 18F0FF50#6E37F159DE35F351
(8.558079) can2 18FEFF31#42201556CBB2B4F9
(8.563656) can1 18FEFFFF#ABE11A64C3DF88B6
(8.573490) can2 18FEFF50#082395210B4AB30A
(8.577885) can2 18FEFF20#29A07F89E564F7FA
(8.586376) can0 18FEFF20#2BCF6D8B03232422
(8.592657) can0 18EEFF31#1DEB9C5F99E9BA5C
(8.597037) can2 18F0FF00#E8B2
(8.604306) can2 18F0FF50#38577A67639045CD
(8.612077) can0 18FEFF31#54F11B2750C2C278
(8.614613) can0 18F0FF31#D53C
(8.623885) can2 18FEFF50#BFDACDFEC85C089F
(8.624912) can0 18F0FF10#4ED1171B0C85E5E1
(8.631236) can2 18FEFF50#E7836E38FFD938C2
(8.639701) can0 18FEFF50#0DC0
(8.649423) can2 18FEFFFF#C9DE57B04AD02C09
(8.659116) can1 18FEFF20#DBC5A05EB801FAA8
(8.664186) can2 18EEFFFF#882237AA526E72E0
(8.669701) can0 18FEFF10#EF03E10FAB592C5A
(8.679407) can0 18FEFF00#DE33
(8.684870) can2 18FEFFFF#4B81196A84F2F743
(8.689737) can2 18FEFF10#3056
(8.692568) can1 18FEFF00#059E3C2A67D343FE
(8.695816) can2 18F0FF31#5D6552BD11C16DE1
(8.704074) can2 18F0FFFF#D4F6E585303116AF
(8.705695) can1 18FEFF40#09D2773700281E47
(8.711216) can2 18FEFF50#CF5699CA4467D80E
(8.717541) can1 18FEFFFF#F6636563
(8.722281) can2 18FEFFF4#3CFDA96D229BACA9
(8.725358) can1 18F0FF20#8F64326C
(8.729770) can2 18FEFF10#048F06AB73CDB744
(8.731440) can2 18FEFF20#77B57794
(8.739067) can0 18FEFF50#615A4366D9667167
(8.745192) can2 18FEFF20#AE10
(8.746967) can0 18FEFF20#F10EF29B182209CF
(8.754127) can0 18FEFF31#CDD9C2A9C36B6814
(8.756527) can0 18FEFFF4#B8EAF5A1EE9D0867
(8.764598) can0 18FEFF31#000000006E000301
(8.771091) can1 18FEFFFF#C5A4E0F99FAEF15A
(8.774218) can2 18FEFF10#B4CB1CFA6D86E246
(8.778017) can0 18FEFF00#BC9F
(8.786528) can0 18F0FFF4#6F88D114A83C3973
(8.794502) can0 18FEFF31#AEB5
(8.799275) can2 18FEFF50#B53415114515A48E
(8.807563) can1 18FEFF50#9670
(8.809832) can0 18FEFFFF#A13BDEAB
(8.813745) can2 18FEFF10#927CB59F53620C85
(8.817359) can0 18FEFF50#5562
(8.819325) can0 18FEFF31#3DED8E8917EF8118
(8.826465) can2 18FEFF20#1DBD
(8.829849) can1 18FEFF31#E51F
(8.834137) can1 18FEFF00#A22E245051D1F432
(8.838984) can2 18FEFF40#F5BA4B0E
(8.847325) can2 18FEFF00#3FEC1906E8D8CAD9
(8.852990) can1 18F0FF40#D87FC30090236F7C
(8.860007) can2 18FEFF31#E99A53C928A37FDF
(8.867349) can2 18FEFF00#C7B23E2A43B77CEF
(8.868646) can1 18FEFF20#3A19FE79A870CFB0
(8.873148) can2 18FEFF20#0D652F02
(8.875960) can1 18FEFFFF#28094A0CB0CE0D89
(8.877402) can2 18FEFF10#E53FF331
(8.884364) can2 18F0FF31#B8AB88553851E660
(8.887356) can0 18FEFF20#C0DD8FD3
(8.889203) can2 18EEFF10#7267C9086BBB6168
(8.896295) can2 18EEFFF4#FFB03430
(8.903285) can1 18FEFF40#B49A
(8.904642) can1 18FEFF40#39164EB3
(8.911955) can0 18FEFFFF#B17E6A117EE1D87C
(8.913625) can2 18FEFF10#57BFFA087347DBD1
(8.914763) can0 18FEFFFF#249CCAE76B350CCD
(8.921657) can1 18FEFFF4#0C6D94170F6967B9
(8.924645) can0 18F0FFF4#892DD380ED841BC0
(8.930850) can0 18EEFFFF#605DD288E3DB0F59
(8.934004) can1 18FEFFF4#1EB4D72F4E2117B4
(8.941230) can0 18FEFF50#EA30455EB78A8C42
(8.948556) can0 18FEFFFF#EC13192B0F6A94D4
(8.956428) can2 18FEFF20#22B278B5
(8.961058) can1 18EEFF00#EE35
(8.968064) can0 18FEFF31#2EA1
(8.975740) can2 18FEFFF4#9A02
(8.978298) can0 18F0FF10#6218A12D
(8.983834) can0 18FEFF31#19BEADD3DD7CE7B2
(8.987478) can2 18F0FF50#69F3FF9C
(8.989229) can1 18EEFF50#D7B68303
(8.995769) can0 18F0FF20#2BE4
(9.002283) can0 18FEFF00#9CF4326E
(9.006492) can0 18F0FF00#6EBD05AB
(9.016275) can1 18FEFFF4#85B5AFFC
(9.019415) can1 18FEFF31#9FA9BEA657741037
(9.026167) can0 18FEFF20#7B6AED2DC7FD1A68
(9.033868) can1 18EEFF20#60B0E5C9
(9.042004) can2 18FEFF50#295098E104280DA9
(9.050767) can0 18FEFFF4#994C75D5
(9.054245) can0 18FEFF40#2ECB
(9.056466) can1 18EEFF31#1BEE9A8301DB9F8B
(9.057583) can0 18FEFF50#1EAF31BEFBB4E359
(9.062213) can0 18FEFF50#D5DAC73D
(9.069402) can0 18FEFF50#D3D30EA7
(9.073572) can0 18FEFF10#21F4
(9.077671) can1 18FEFF00#5179DAD5697577C3
(9.083365) can1 18EEFF00#1B758135BF4F9EAE
(9.088724) can2 18FEFF10#8A1881C6AC67495E
(9.091286) can2 18F0FF40#8F6F
(9.099265) can0 18EEFF31#55695473B110100C
(9.104982) can2 18FEFF50#86FBE0EC7323F59D
(9.112941) can0 18FEFF10#04D40A821E0B5BF6
(9.117813) can2 18FEFF10#5F6934D0689E5022
(9.122786) can0 18FEFF10#34F8B9593652B593
(9.128448) can2 18FEFF20#2C6AE486747D9328
(9.134324) can1 18FEFF10#0046BBFE3401613A
(9.136748) can1 18FEFF50#05C6
(9.139731) can2 18FEFFFF#AAE90BC0
(9.144775) can2 18FEFF31#4F2CE7224D46C8D6
(9.152055) can2 18F0FF10#D52FF38D5991DB74
(9.159291) can2 18FEFF50#8DE52D4D8A5DC852
(9.163717) can0 18FEFFFF#6F54E211
(9.170693) can1 18FEFFFF#B593EDAAC82C77BF
(9.176292) can2 18EEFFFF#AFCC44F8AF5FEEB7
(9.179553) can2 18EEFFFF#974C04F8951C2E5D
(9.184003) can1 18FEFFF4#CF8C47AD0AEB7371
(9.190251) can2 18F0FF00#14A5D322
(9.196492) can0 18F0FF50#ABAD369D
(9.197649) can2 18FEFF10#E9C1A99A3F8C250F
(9.206221) can1 18FEFF20#6150D4293E761270
(9.209533) can2 18FEFFF4#3D202B78E13D6727
(9.210795) can0 18FEFF50#92D6
(9.211914) can2 18FEFF10#8BF1D18F
(9.214522) can2 18FEFF10#C6A5
(9.223670) can2 18FEFF10#5B4B1698DAFF8C7F
(9.225530) can0 18FEFF40#49650B1E6E566DE7
(9.231311) can1 18EEFF20#75E738A61B0FC4CA
(9.241174) can0 18FEFF40#EEB77493B6F051D1
(9.247881) can1 18FEFF00#628FBE308D86D9A8
(9.250280) can1 18FEFF00#E369631988A49AF9
(9.257266) can2 18FEFF40#2560ABD8DE009243
(9.266098) can1 18FEFF40#B2939F48
(9.268123) can0 18EEFF50#A399185BFFD30D02
(9.276892) can1 18FEFF31#006E000501BE0007
(9.283733) can2 18FEFF40#E78169F09998B41F
(9.286733) can1 18F0FFFF#30E206AC435E5A9C
(9.291347) can1 18FEFF50#6F66DC2057B8A61E
(9.301202) can2 18FEFF50#26AAC16926B84813
(9.305949) can0 18FEFF40#2F1C275D06EED36E
(9.310752) can2 18FEFF50#3C4B1EAE5A14B7D3
(9.314027) can2 18FEFF50#37F72EEA
(9.315059) can2 18FEFF50#D0B91C3781D9617C
(9.324878) can0 18FEFF40#1CA71ED4F46A79E4
(9.327488) can0 18F0FF40#5D1A
(9.331810) can2 18FEFFF4#AACE4AAFA0D325AB
(9.336564) can1 18FEFF31#BBBDA86ACC387577
(9.338353) can0 18EEFF10#76F78AF1
(9.346728) can0 18FEFF50#95FAA9EA60054AF0
(9.351999) can2 18FEFF40#51E80926F3B0AF31
(9.361805) can2 18FEFF50#1DF5
(9.368288) can1 18FEFF10#854A7B27
(9.369501) can1 18F0FF40#ADD3FDF7
(9.376566) can2 18FEFF31#6CE95232F26BAFC5
(9.385702) can2 18FEFFF4#6BC170EC50D091F4
(9.395591) can2 18EEFFF4#2D398F5F9D2D0F12
(9.402766) can2 18FEFF00#9968
(9.410648) can1 18FEFF10#8E5B16AEB5E728DD
(9.418343) can2 18FEFF00#C417F632
(9.423269) can0 18FEFF31#6455
(9.425268) can0 18FEFF20#122136CE06F66716
(9.434663) can2 18FEFFFF#A94F885F
(9.438332) can0 18EEFF10#4B72F1FF
(9.441269) can0 18FEFF10#5AD8E00FF1CF100B
(9.449795) can2 18FEFF31#E631
(9.454843) can2 18FEFF20#C1DD871702FF9342
(9.456146) can2 18FEFF10#368B
(9.464535) can2 18FEFF50#61E0C2F942441CD4
(9.466422) can0 18F0FFF4#267C705CAD297050
(9.468095) can2 18F0FF40#81EE
(9.470520) can2 18EEFF40#545728EBDBA83B00
(9.471974) can2 18F0FF20#91CFCF2AAD3E3E86
(9.479302) can2 18FEFF20#DB53B9AA4F8AE419
(9.482269) can2 18FEFFFF#8387219DDCC30732
(9.489120) can2 18FEFF50#EEB4BC6233D3A783
(9.492328) can2 18FEFF20#347B8923
(9.498404) can1 18FEFFFF#DEC957FE
(9.501467) can1 18FEFF20#F033986F72D666A3
(9.509793) can1 18FEFFF4#58CD9F71E439FB16
(9.516545) can2 18F0FF00#62C7AFCC22ECA1DB
(9.522458) can1 18FEFF00#F6DD77A7C244F854
(9.529333) can0 18FEFF10#AA89
(9.538868) can0 18FEFF50#9F26E76CE9A2D0B4
(9.544925) can0 18EEFFFF#B131C876
(9.549417) can0 18F0FF50#DF7F254A
(9.558063) can2 18FEFFF4#10E9B21358E430A2
(9.560689) can1 18EEFFFF#982BF6002383C1C9
(9.562438) can2 18EEFF20#CBD95E1ED74F6C30
(9.565928) can2 18FEFF20#B0DBC239BB900184
(9.571118) can1 18FEFF10#0235815CA97AAF1D
(9.579721) can2 18FEFFFF#A24CA5E68AF8DC85
(9.587797) can2 18F0FF20#225BA246C2991337
(9.592331) can1 18FEFF50#C98C
(9.600988) can1 18EEFF31#AB5B4CC5DBCE90FF
(9.606434) can0 18FEFF31#4688491602B37BFB
(9.608438) can2 18FEFF40#90B2D33F
(9.617377) can2 18FEFF20#8C3B92F7A2954DDA
(9.622822) can1 18FEFFF4#CC99712E3E5B1E57
(9.631675) can1 18EEFF31#28BA306CBB6872DF
(9.640757) can1 18EEFF31#66F33193CB3F7A1B
(9.650468) can0 18F0FFF4#6D90D12BF91BE14A
(9.654175) can1 18FEFF50#EAD73B55
(9.661038) can0 18FEFF20#665D4D5C
(9.668189) can1 18FEFF20#A86C2A59
(9.669519) can2 18FEFF00#3851
(9.677716) can0 18FEFF10#AD6C5F6F
(9.679645) can0 18FEFF31#8609CA241CFE6F96
(9.683724) can1 18EEFF20#D3E4A6AFE3AADA4F
(9.689798) can1 18FEFF50#9BAC130F
(9.692607) can1 18EEFF20#443CFCF50F21A447
(9.694936) can2 18EEFF31#51D7
(9.704042) can2 18FEFF20#8A973927773C7A53
(9.708997) can1 18FEFFF4#A5C37682AFC282B1
(9.715456) can2 18F0FFF4#ABC4BF62
(9.716835) can0 18FEFF50#999F22C0502E0238
(9.718533) can1 18F0FF00#3797F2E0
(9.725896) can1 18FEFFF4#FB4750D95B7002B6
(9.730260) can0 18F0FF31#C428
(9.738514) can0 18EEFF31#0D8DB0C4E9A19DC8
(9.746258) can0 18FEFF31#F6B1
(9.749192) can1 18F0FF00#F3A5CDBE97FD1143
(9.758277) can0 18FEFF31#7CA87B8378A23A77
(9.767442) can1 18FEFF50#B78E
(9.773986) can0 18FEFFFF#80B6A38732AC6A19
(9.779387) can2 18FEFFF4#238734DF4950DC76
(9.780929) can2 18FEFF31#5EA13C29E4F5E656
(9.785363) can0 18FEFFF4#3F8143D19A3463FD
(9.791856) can2 18FEFF20#D2B9
(9.796827) can2 18FEFFF4#BEE2EC8483FFDBF4
(9.799973) can1 18FEFF31#B5F589EA17FEB1E9
(9.807153) can0 18FEFF00#937CE815E6A0D4AC
(9.814778) can0 18FEFF50#55851B5830DCCA41
(9.824409) can2 18FEFF00#67FF707C
(9.829315) can2 18EEFF10#59AED4063D369776
(9.834333) can0 18FEFF40#000000006E000301
(9.836102) can2 18EEFFF4#A4C8
(9.844525) can2 18FEFF20#41AAE8038AD3F872
(9.849434) can0 18FEFF00#775D
(9.856423) can1 18FEFF31#7C82B8C1
(9.866236) can0 18FEFF20#2B7564AB
(9.874116) can1 18FEFF31#D801651EE8AA0D66
(9.879527) can0 18FEFFF4#2482CF19C7C180A3
(9.883880) can1 18FEFF40#1100
(9.890327) can1 18FEFFF4#CB6B118FC39848B5
(9.897103) can2 18EEFFF4#269BF91E
(9.902267) can1 18FEFFFF#5DF7DE75
(9.904721) can2 18FEFFF4#DD5C1EC6E906415D
(9.910519) can2 18FEFF31#C5631F8358699D37
(9.915281) can0 18FEFF31#EC7F4E2CD6C88E33
(9.921639) can1 18FEFF31#BFEE4E317CA59016
(9.924181) can1 18FEFF20#82FD8CB76151BA8A
(9.925604) can1 18FEFF20#4926
(9.934277) can0 18FEFF50#32877EAB51417B8C
(9.935601) can1 18F0FFFF#68013042474ACB90
(9.942861) can1 18FEFF50#2E6DFDC57E5ADC1B
(9.950080) can0 18F0FF31#E1EEE7D6
(9.956667) can0 18FEFF40#1451627B
(9.958126) can2 18FEFF31#80D2FA51A59BE928
(9.967867) can0 18FEFF40#A2E7
(9.971331) can0 18FEFF40#ADAC5E02C9515551
(9.975762) can0 18FEFFF4#B5355C26
(9.979503) can2 18EEFF40#DC848DC91717EFC0
(9.981581) can0 18FEFF00#F6AFF909BF9152B1
(9.990136) can0 18EEFF20#139F1EAE3853E44A
(9.997544) can1 18EEFF50#D8A3636E723A409D
(10.001075) can1 18FEFF20#C6E37564EEDBDF64
(10.009430) can1 18F0FFF4#0F57E6CF
(10.010919) can2 18FEFFF4#10FCD27A
(10.015283) can0 18EEFF20#F262
(10.016381) can2 18FEFF40#B1D527E5C74EE051
(10.018149) can0 18FEFF40#96BF271339531859
(10.020980) can2 18FEFF50#CA335E5469FAAFCA
(10.025846) can1 18FEFF10#EAC5F82540CFEBB7
(10.033636) can1 18FEFF40#A0E6C8FCBD584D51
(10.039850) can1 18FEFF20#6774
(10.042258) can2 18FEFF40#C0B5
(10.045892) can2 18FEFF31#6135B4A3DCC498A0
(10.048375) can2 18FEFFF4#CA5A694D8B6B7741
(10.049951) can0 18FEFFF4#7D7DB82EAD66C3A3
(10.056880) can0 18FEFFF4#14BE87031A55C8E3
(10.063645) can2 18FEFF31#D45B957B
(10.066585) can1 18FEFF50#ABBE
(10.073081) can2 18FEFF50#AA7A45B4D5A5106A
(10.079711) can1 18FEFFFF#395D99146CAE98DA
(10.081063) can1 18FEFF31#6B47
(10.084162) can0 18FEFF40#1745AD8109EA9817
(10.086472) can0 18FEFF20#B321
(10.093980) can1 18FEFF31#BA538C817C0D1112
(10.099603) can0 18FEFF10#95BD
(10.106700) can2 18FEFF00#4CFD
(10.110684) can1 18FEFFF4#9D866344FFEC35F7
(10.112916) can0 18FEFFFF#95CF
(10.117818) can0 18FEFF31#22E55921
(10.127648) can0 18FEFFFF#2ABFB6A52740DE10
(10.135283) can0 18FEFF40#EC47C49A
(10.136360) can0 18EEFFFF#7267C0F0A34FDC25
(10.137482) can0 18FEFFF4#18DC
(10.146025) can0 18FEFF31#8CF6
(10.155563) can2 18FEFFF4#9FC56B531F9770AA
(10.160230) can0 18FEFF00#F4DD45848F1642BC
(10.163775) can0 18FEFF20#40DA80F6DA76D739
(10.168332) can1 18FEFF31#60A5927674726C0C
(10.174006) can0 18FEFFFF#C923103AD8452877
(10.176071) can1 18EEFFFF#EF86
(10.182421) can0 18FEFF31#356C3CF314836D3C
(10.192016) can1 18EEFF10#45C6F29D
(10.198661) can2 18FEFFFF#7B38624FBFF536D7
(10.205869) can2 18EEFF20#587A8543
(10.210927) can2 18FEFF00#E122F7362F61DE09
(10.220555) can0 18FEFF40#3193
(10.229281) can2 18FEFF20#D137E323EAA1A2EF
(10.233608) can2 18FEFFFF#4C2D5ECDF0916C4C
(10.239209) can0 18FEFFF4#585E4552FE0AE380
(10.243260) can0 18FEFF50#DF69A3EED457B47B
(10.247338) can1 18F0FF31#F550A79381A8B6BB
(10.256817) can2 18FEFF50#6DD8
(10.265431) can0 18F0FF50#F0A2DD3CF62AEA3D
(10.269341) can2 18FEFF10#24991C7A2DFFF56F
(10.271166) can0 18FEFFF4#59ECDA32C7F9057B
(10.279746) can0 18FEFFFF#07DE0F5FC9E64EE0
(10.286502) can2 18FEFFF4#3044
(10.292292) can2 18FEFFFF#7711768B4B93640B
(10.296640) can0 18FEFF00#7D1B21176EF57543
(10.301432) can2 18FEFFF4#E6ED
(10.308275) can1 18EEFF31#08FA0BD9BA3A7CA1
(10.318018) can0 18F0FFFF#421F2DF3B630814F
(10.320517) can0 18F0FF20#A4446CB296DC188C
(10.328412) can1 18FEFF31#4D5336AC5003A42E
(10.335768) can0 18FEFF31#360E4599
(10.338421) can1 18FEFF00#9E245D4B
(10.347980) can0 18F0FF40#8874
(10.355121) can0 18FEFF50#196BF2E4C6FC40A0
(10.358949) can1 18FEFFF4#3A145E9DECB9A91E
(10.360693) can0 18FEFF20#B1BF512718D0A21E
(10.367576) can0 18FEFF22#006E000501BE0007
(10.368615) can1 18FEFFFF#091170ACD00F7E47
(10.378153) can0 18FEFF40#B1F3
(10.379835) can1 18FEFF00#9FD2A7B92CDD924C
(10.389441) can0 18FEFFFF#7131
(10.397318) can2 18FEFFF4#5CDF
(10.403395) can0 18FEFF40#A9E9CEB7DB15F774
(10.413064) can2 18FEFF10#9F900623603BBFCC
(10.414246) can0 18FEFF50#B08B8A22531A913E
(10.419196) can2 18FEFF20#62E4B45B
(10.423329) can2 18FEFF20#179D21F906AD5667
(10.429169) can0 18FEFF40#FD6BE6408EC63ACA
(10.435440) can1 18FEFF10#74204FB3
(10.441678) can1 18FEFF00#8281
(10.451623) can0 18FEFFF4#8586
(10.454931) can0 18FEFFFF#145D
(10.464177) can2 18FEFF00#F99D
(10.472367) can2 18EEFF10#A47D1C5BA69E5043
(10.479034) can1 18FEFF00#D2319768EDF2587F
(10.488366) can0 18EEFF50#691CE51584EC47D4
(10.490446) can2 18EEFF00#CF63AE83E0847859
(10.492970) can1 18FEFF40#9AE3CEB21373803D
(10.499641) can0 18FEFF20#F04FCA0BE6EDEF2B
(10.508383) can2 18FEFFFF#72759D4681D29220
(10.517167) can2 18FEFFF4#293A37CE77DC89FD
(10.518422) can2 18F0FFF4#1CBF3B8C
(10.526036) can2 18FEFF00#EEB5A1274E64AD70
(10.530257) can1 18FEFFFF#FECFC2E7
(10.536092) can0 18FEFFF4#B37449192BEEDA97
(10.541739) can0 18EEFF20#605275BE
(10.550228) can2 18FEFF20#8EC9BE61E8FFEC51
(10.551389) can2 18FEFF40#90D3C3E7C2FD51EF
(10.559803) can1 18EEFF10#6A2EA1A60A347BAD
(10.562880) can1 18F0FF31#BD596E8436BC4116
(10.572163) can2 18EEFF40#F181599C
(10.577177) can1 18FEFFF4#DDB0F2FB
(10.580298) can2 18FEFF31#CA6BEB92892662C5
(10.586204) can0 18FEFF31#98812E80
(10.595503) can0 18F0FF10#4C535AA47712681E
(10.597425) can1 18F0FF20#62B81B72AA94F658
(10.600700) can0 18FEFF10#3C10
(10.608110) can2 18FEFFFF#FB3E860BF565CDA6
(10.613839) can2 18F0FFF4#2EC16B2F
(10.623589) can1 18FEFF00#34F7A2C2D2AECBE3
(10.628895) can2 18FEFF31#14DE7027662EC7BA
(10.637460) can2 18FEFF20#82842AEAAF5BAD3A
(10.639440) can1 18F0FF10#017F
(10.648221) can2 18EEFFF4#00F5E3D615AE914F
(10.654878) can2 18EEFF40#AD83B773
(10.657432) can2 18FEFF20#A7DEB960A698B857
(10.665611) can1 18EEFFF4#5E70
(10.673999) can1 18FEFF50#693F4666
(10.675249) can1 18FEFF50#02559BBF9B98D40D
(10.680132) can1 18FEFF31#8CF6110A48932DE7
(10.688849) can0 18EEFF10#D87BCB3475398706
(10.698776) can1 18FEFF20#CEAF0F9593CB114E
(10.699961) can2 18FEFFF4#F02A977AD45FBAD9
(10.708233) can2 18FEFFFF#177E04F2490BF674
(10.709763) can0 18FEFF00#49E0
(10.712835) can2 18FEFF00#9A8496C3CBA4EF1C
(10.716621) can1 18FEFFF4#1501
(10.719129) can0 18FEFFFF#742BAC735CA3C424
(10.725296) can2 18FEFFFF#137796ED6A75C7A6
(10.726483) can0 18FEFF00#937C6477042CF47A
(10.728411) can0 18EEFF00#633E5438
(10.729797) can0 18FEFF00#954E066D9C80E92E
(10.732480) can0 18EEFF40#91FF3895A8889F73
(10.736386) can0 18FEFF40#5C6252A67EFC5C05
(10.739122) can0 18FEFFFF#A0B4AF80
(10.740465) can1 18FEFF31#7333D62675B87755
(10.747066) can1 18FEFF40#4173440E1BA75305
(10.752312) can0 18FEFF10#37F9D0004D4FDCD7
(10.753350) can1 18FEFF00#9127FBC69210AA62
(10.762594) can0 18FEFF31#2A95
(10.772445) can1 18FEFFFF#FD11EA80
(10.781030) can1 18FEFF20#6462
(10.783645) can2 18FEFF40#5837EF0DA690EC9A
(10.786975) can2 18F0FF40#D4EB
(10.790133) can0 18FEFF10#B2ACDD572305C0F8
(10.796006) can1 18FEFF50#42BB71B70174D88C
(10.803090) can0 18FEFF50#E11C3F33
(10.810838) can1 18FEFF40#FC29E1FB1150BD1F
(10.818309) can0 18FEFF50#681474D5773717FF
(10.825742) can1 18F0FF40#99E4
(10.833523) can1 18FEFFF4#F1E8C394B1C63329
(10.840977) can2 18FEFF10#E6F91043
(10.844558) can0 18FEFFF4#BE536908F36F614F
(10.853401) can1 18EEFF00#D26C
(10.858600) can2 18FEFF10#12A8B740B20D79D3
(10.860406) can2 18FEFF10#A490F8F4
(10.863032) can0 18F0FF31#D73D
(10.867675) can0 18F0FF31#24216231FBC35B07
(10.872678) can0 18F0FF31#ED674F43
(10.877751) can2 18EEFFFF#0AB7EDC68E921873
(10.883344) can0 18F0FF10#0E8009B8166F3D63
(10.888145) can1 18EEFFF4#EFF3325C5B58F13F
(10.894858) can2 18EEFF50#944186E157348306
(10.901345) can0 18FEFF20#8D62519A
(10.904365) can0 18FEFFFF#553C547C
(10.905407) can1 18F0FF10#9FBABB77
(10.915229) can0 18FEFF40#000000006E000301
(10.921270) can0 18FEFF10#6FBA9CC00D9DCCCE
(10.927329) can1 18FEFF50#B42DC2D9617C3F82
(10.930285) can1 18FEFF20#A8C085E7
(10.934060) can2 18F0FF40#C2756B77582D7118
(10.940234) can2 18F0FF40#8A54352B
(10.948287) can0 18FEFF20#0D16
(10.956739) can1 18FEFF50#78300512E8D1C8CB
(10.963501) can0 18F0FF20#AC0D7C69D229064E
(10.969932) can0 18FEFF00#E939621C7A6264AA
(10.977703) can2 18FEFF20#00CED29C
(10.981022) can2 18FEFF31#2053CB8AD3F1728F
(10.982880) can1 18FEFFFF#08679906B35FAC81
(10.986100) can2 18FEFF20#51F2CD6949C27777
(10.989126) can1 18F0FFF4#196F
(10.991162) can2 18FEFF40#8311AD71681FFFAE
(11.000246) can2 18FEFF10#A0CB
(11.007752) can1 18EEFFF4#0F61949798FD39D4
(11.014940) can1 18FEFFF4#0680815EB333F06D
(11.016754) can0 18FEFF31#67878A980EA3E6D6
(11.019887) can1 18FEFF31#BF27DD019457E3AD
(11.021493) can0 18FEFFF4#C14381697889936A
(11.028695) can0 18FEFF40#6947116C8E131E0A
(11.033081) can1 18FEFF00#82D269E9
(11.038283) can2 18EEFFFF#B49BB0B51A4A7608
(11.043021) can2 18FEFF31#026084F63B958B47
(11.045776) can0 18F0FFF4#CA7D4406CEC24C48
(11.052464) can0 18FEFF10#E8DA
(11.054427) can1 18FEFFFF#E7147F64AC8FE1E4
(11.056633) can1 18EEFFF4#D277
(11.060668) can0 18FEFFF4#B3EC14E9EA6DBFA3
(11.067166) can0 18FEFF31#0855AFE684CDCE94
(11.070258) can2 18FEFF10#7B330B40
(11.075013) can2 18EEFFFF#B97425D109E125F5
(11.084782) can1 18FEFF40#5B659BFE60661A91
(11.093609) can2 18FEFFFF#DA3EA927
(11.097537) can0 18FEFF40#EF9DABAD3B4D19C0
(11.106365) can1 18FEFF31#4F58D69B
(11.115527) can2 18FEFFF4#2256AFBF54630DB7
(11.119923) can2 18FEFF20#912A256C38744760
(11.125042) can1 18EEFFFF#6FE4
(11.126791) can2 18FEFF40#8230373391C4BD88
(11.130366) can2 18EEFF10#5157
(11.134903) can0 18FEFF31#A19A
(11.138396) can2 18EEFF40#2CA42F51
(11.140924) can2 18FEFF40#421FF442
(11.149165) can2 18FEFF00#AC62E50A6B435BB7
(11.158301) can2 18FEFF40#9DC6DF327A913124
(11.162865) can2 18F0FF10#F325109581B5AC6F
(11.167755) can2 18FEFF40#16892B9395FB8702
(11.177001) can2 18FEFFFF#BA107C0E
(11.183198) can2 18FEFF31#8901D072D04985FD
(11.191736) can1 18F0FF40#E68FA53D73B2D30B
(11.199636) can0 18FEFF50#8EC3
(11.203972) can1 18FEFFFF#33F7007066532580
(11.209344) can1 18F0FFFF#F165
(11.213514) can1 18EEFFFF#A1B92F1722BD70D2
(11.216163) can2 18EEFF10#15B98BFDB135CD81
(11.221952) can1 18EEFF10#3069A845
(11.230711) can1 18FEFF50#2771A87DA6B6838F
(11.235246) can0 18F0FF40#BE84EAC5
(11.238928) can0 18FEFF00#722AF7132195D816
(11.241750) can1 18FEFFF4#45E0
(11.242850) can1 18FEFF00#4C7EF499
(11.247969) can0 18FEFFFF#DC0ADDC71808C7E9
(11.252153) can1 18FEFF40#F22E9584FB3D0675
(11.253216) can2 18F0FF00#838319B513C35F56
(11.257563) can2 18FEFF00#E3B420A1FC364E56
(11.258569) can0 18EEFF40#8857C8582D6F80BB
(11.264984) can2 18FEFFFF#29BA4D3FD9032411
(11.270574) can1 18FEFF40#D29115CC
(11.275392) can1 18FEFFFF#687260D204CDD18A
(11.278237) can0 18FEFF00#76C5DCB99F2B2E3D
(11.288137) can1 18EEFF40#40B099AD90CD152F
(11.293216) can1 18F0FF00#53B1187E6939747D
(11.297211) can2 18FEFF20#58B39283F428E987
(11.303556) can0 18FEFF20#D9F4477852DBD9B8
(11.306966) can2 18FEFF00#00E12688
(11.314620) can1 18FEFF50#FAA6
(11.319028) can2 18EEFFFF#7D630D179D6C7033
(11.323468) can1 18FEFF10#5220E86E65728C1C
(11.331531) can2 18F0FF00#E1CBF8C9E9CCE82B
(11.337962) can1 18FEFF40#4F62AF5B
(11.343994) can1 18EEFF00#7EE85E41
(11.351889) can0 18FEFF20#65E08650
(11.358980) can1 18FEFF00#AA4B
(11.368941) can1 18FEFFF4#9749
(11.373865) can1 18FEFF00#6A3A
(11.376551) can2 18FEFFF4#01D66E5058CFA640
(11.385352) can2 18FEFF50#E5D30454
(11.394511) can0 18EEFF20#A2456115A461A982
(11.403369) can1 18FEFF10#7C550A7B5F49B6DD
(11.405260) can1 18FEFFF4#0A716FBF
(11.414767) can0 18FEFF50#AFD4A7DD
(11.420904) can0 18FEFFFF#3DB7
(11.430111) can2 18FEFF31#710AB2417C6416F5
(11.433507) can0 18FEFFFF#E528555C9140B3AE
(11.443035) can0 18FEFF50#8E3A6A6B1B9E1F86
(11.446595) can2 18FEFF50#0E64EC06F9CF8367
(11.451550) can2 18FEFF00#676EE43014865CDC
(11.453301) can2 18FEFF22#000000006E000301
(11.456256) can2 18F0FFF4#645C
(11.459583) can1 18FEFF00#3F25A141B8F8A8E1
(11.467128) can2 18EEFF31#764C98BAA567E2D3
(11.473367) can0 18F0FF31#F99AD39778853C87
(11.475195) can2 18F0FF20#7C69
(11.483922) can0 18FEFF31#CF477070
(11.488926) can2 18FEFF20#28CC
(11.491457) can2 18FEFFF4#A62B5739C74B633F
(11.498700) can0 18FEFF10#893025BDBD3E2D75
(11.500739) can0 18FEFF50#AC3440673679EF4A
(11.505005) can0 18FEFF31#E9EF8E0A63B71544
(11.507826) can0 18FEFF40#CB323EC01A6FC6C9
(11.510827) can1 18FEFF20#75733A32
(11.516753) can1 18FEFF40#81D4
(11.520532) can0 18FEFF00#4575
(11.523917) can0 18FEFF31#58FEFEE5186D397B
(11.533186) can2 18FEFF40#E5ED
(11.541952) can2 18FEFFF4#8FBA3A22
(11.545342) can2 18FEFF00#C89AA3583009AE20
(11.553629) can0 18FEFF00#C310978AD008F4B8
(11.558620) can0 18FEFF20#77CA2CAE352ED36F
(11.568074) can0 18F0FF00#DC2885FF
(11.577517) can2 18FEFF00#D38491E7CB9CC190
(11.585731) can2 18FEFFFF#926947292DF9957E
(11.587726) can2 18FEFF40#715C
(11.591015) can1 18EEFF50#780C0EBD6819331D
(11.593282) can1 18EEFFFF#A4E1C012
(11.598241) can0 18FEFFFF#EBDDB526B9CE640E
(11.608063) can2 18FEFFF4#FC91
(11.609592) can2 18FEFFFF#04E1
(11.612866) can2 18FEFFF4#347E
(11.615334) can1 18FEFF10#6FCE
(11.617068) can2 18FEFF10#618C6CBD
(11.618965) can0 18FEFF40#DD5BEA71C90E93F5
(11.627693) can2 18FEFF31#53B5DBB6EEBB9FFE
(11.632287) can1 18FEFF31#77ECD1D8
(11.642249) can2 18EEFF40#2C2FC3DD491D31DE
(11.649270) can2 18FEFFF4#0C86
(11.653570) can1 18FEFF50#F2CB
(11.663236) can2 18FEFF10#5BA2
(11.666225) can2 18FEFF40#5AA83787D5CEACA0
(11.672730) can1 18FEFF50#D2E0434D6FC09823
(11.675970) can1 18FEFF10#F5BB8980
(11.683937) can0 18F0FF10#D29B
(11.688001) can1 18FEFF00#5495BE262F0A27CF
(11.691697) can1 18F0FF40#4776AE7648303D98
(11.694935) can0 18F0FF31#6F76D4484B091EBA
(11.699783) can2 18FEFFF4#CF2C
(11.702176) can1 18FEFF10#9274177D5BA2589E
(11.706203) can2 18FEFF10#9922
(11.707334) can0 18FEFF31#B33D
(11.713390) can0 18EEFF20#B464E56427F3A7D1
(11.718389) can1 18EEFF40#02503320D4C8BD90
(11.724850) can2 18FEFFFF#19E2B891
(11.730113) can1 18FEFFFF#070FEC76C58F3D63
(11.731364) can1 18EEFFF4#BDB1EEE7
(11.735450) can0 18FEFF31#182D
(11.742054) can1 18F0FF10#F475
(11.749476) can0 18EEFF00#1A562BFFEC2439E0
(11.751578) can1 18FEFF40#377A
(11.760083) can0 18FEFF50#54D9E8FA0E1147A1
(11.768719) can2 18FEFFF4#4E105B24
(11.772822) can1 18EEFF00#55936669
(11.782330) can1 18F0FF00#41D867BAB8BD429B
(11.791991) can1 18EEFF31#DC38
(11.793314) can2 18FEFF40#884D9C13
(11.801589) can1 18F0FFFF#BA36
(11.811070) can2 18FEFFFF#4203B34EE14DF3E2
(11.813984) can0 18FEFF40#75184C5F25078219
(11.818509) can0 18F0FF40#B35D549B25EA2007
(11.827323) can1 18FEFF10#D4299C573DC7DB21
(11.832822) can2 18F0FF40#D769EF68F85BD774
(11.837707) can0 18FEFFF4#C5B077EAF710601E
(11.842186) can0 18F0FFFF#0E2C5ABA39C06814
(11.848030) can0 18EEFF40#5E802CC3AD638DDF
(11.855566) can2 18FEFF00#E9215009
(11.861062) can2 18FEFF20#E4FE884CBAC51E77
(11.865797) can0 18FEFFF4#B971
(11.871452) can2 18FEFF31#64D9C792B1CC0460
(11.873302) can0 18FEFF20#6EDC7606
(11.881664) can1 18FEFF10#02E717DD
(11.884929) can0 18FEFF40#B25CC262FC2785B8
(11.894602) can0 18FEFF20#523057DF59AC65F8
(11.899332) can1 18F0FF10#50F6CB90
(11.901591) can2 18FEFF20#2F27E76CF4D074FA
(11.903758) can1 18EEFF20#E3926C82B3816067
(11.913681) can2 18FEFF40#E2F3
(11.921949) can0 18FEFF20#9C13
(11.924989) can1 18FEFF50#9BBDFF14AE0E9F0E
(11.928756) can2 18FEFF50#A66AB4EB79355985
(11.932621) can1 18FEFF00#8ADF0464C6715533
(11.942079) can0 18EEFF31#EF797DBE
(11.947438) can2 18EEFFF4#69AC
(11.950058) can1 18FEFF00#20D17F3E5D9FE8D0
(11.955032) can2 18FEFF20#392B
(11.961974) can2 18FEFF31#B2C393CB
(11.968069) can0 18F0FFFF#C687E23A
(11.973271) can1 18FEFF20#9601E5DD1B1B72FD
(11.975481) can2 18FEFFF4#C96711A7F72056C1
(11.982554) can2 18FEFF31#006E000501BE0007
(11.987616) can2 18FEFFF4#037C0BC38F5F703B
(11.991075) can1 18FEFF10#07C0
(11.997791) can2 18F0FF50#69D7ECB21EC04C31
(12.001524) can1 18EEFF50#C43D
(12.005088) can1 18F0FF31#161741ABC144CE43
(12.008101) can0 18F0FF31#3951
(12.014120) can0 18FEFF20#4982
(12.021965) can2 18EEFF20#926B232B86144E14
(12.030777) can1 18FEFF00#232DB08ED8C9BCD7
(12.034628) can0 18EEFF20#CE168049
(12.038362) can0 18FEFF50#A3AA
(12.041492) can0 18FEFF20#5583038C
(12.049442) can2 18FEFFF4#FE9E
(12.057918) can1 18FEFF50#CF038B9101029FF1
(12.061533) can2 18FEFF31#FCB1C0B0FB855B9A
(12.065557) can1 18FEFF31#6C60860FA4644C8A
(12.073077) can1 18FEFFF4#00209960DB5E62E7
(12.076338) can2 18FEFFF4#5EEE53B3EA244317
(12.085853) can2 18FEFF20#CD4792DF6CE81BF3
(12.091318) can1 18FEFF50#309A7D65
(12.095791) can2 18EEFF40#0C2EE9E5
(12.102549) can0 18FEFF20#2CB328CA
(12.110584) can1 18F0FF50#070F56CAB3D16D1C
(12.120205) can2 18FEFF31#CD004FFB
(12.127821) can0 18EEFF10#FB06
(12.135355) can1 18F0FFF4#4276DD4E88F069A4
(12.140892) can2 18EEFF20#C1B094C591A1F679
(12.150799) can0 18EEFF50#A8E7BB3871265264
(12.157229) can1 18FEFF10#5D54DE5C20933941
(12.161542) can0 18FEFF31#DABA70C381307B18
(12.169068) can1 18FEFFFF#D9927029C6607A6E
(12.172956) can2 18FEFFFF#2AD1
(12.179042) can2 18EEFF31#053F16274B2596E1
(12.180137) can0 18FEFF10#3444E2560F4612D9
(12.182323) can1 18F0FFFF#C5A8969B
(12.192000) can0 18EEFF40#32DB
(12.198152) can0 18FEFFFF#7A10B96066E41249
(12.205457) can0 18F0FFFF#0D819BE9D1977BCD
(12.212333) can2 18FEFFF4#84E4EC0273D24718
(12.219734) can2 18FEFF10#38196642
(12.229139) can1 18FEFFF4#DEF01525EEC1A3C8
(12.230595) can2 18FEFF20#65F142553BAEC8A8
(12.238314) can2 18FEFF50#3488DB6848E1EB18
(12.243600) can1 18F0FF50#D292F94BE5ABE5AE
(12.249332) can0 18EEFF40#F53C9506F5E0FC46
(12.255121) can0 18FEFF20#213DE0CB01B6C6E1
(12.256936) can1 18FEFF00#172E417424F63773
(12.266591) can0 18F0FF40#DDB331D5
(12.270954) can0 18EEFFF4#95D0AA1BABEFD14D
(12.278487) can2 18FEFF50#DBF1253592E63138
(12.283707) can0 18FEFF20#F4AD4FB548728F2B
(12.286073) can1 18EEFF40#F84176939410922C
(12.290017) can1 18FEFF00#0249A9AF20528AB7
(12.299369) can0 18FEFF20#09C83204BC43F56A
(12.300439) can2 18FEFFFF#B574ABA8943557FF
(12.306969) can1 18EEFFF4#2F587EB9513AE71A
(12.311512) can2 18FEFF00#CF1D6209CC39D9EC
(12.320268) can2 18EEFF20#38C83331F8E780A0
(12.329953) can2 18FEFFF4#0AFE
(12.331485) can1 18FEFF40#CC92252E3742EC58
(12.341046) can0 18FEFF40#85B2
(12.350523) can1 18FEFFF4#6BFD
(12.354762) can2 18FEFF40#99F4E1C054BC707A
(12.357676) can1 18F0FF31#1D6CE90C6A3E3DBC
(12.363817) can0 18FEFFFF#143EDB7025699CCC
(12.369535) can1 18F0FF10#811A5EAD
(12.371627) can1 18F0FF31#78628E3064FD5381
(12.374604) can2 18EEFF00#916E2FD275EA2AF5
(12.382053) can2 18FEFF31#A116FC31DE82BB9D
(12.388687) can1 18FEFF00#B22D22AD6CAA6CEB
(12.394585) can2 18F0FF50#1800
(12.400807) can0 18EEFF20#1C6A6AB9306599BC
(12.407417) can0 18FEFF40#B8120CF2D458B358
(12.409122) can0 18FEFF40#F2980E520B6A6A76
(12.418391) can0 18FEFF50#DD9C
(12.421449) can2 18FEFF50#3DE8347054D97C7C
(12.429376) can1 18FEFF00#A4DC
(12.432250) can1 18FEFFF4#F0121939
(12.434363) can2 18FEFFFF#68C45C4E6754AEE1
(12.442666) can0 18FEFF10#2ACDE5786E5C42D7
(12.447220) can2 18FEFF00#0D6A7F5EA08CBD0D
(12.456901) can1 18FEFF10#88E82E9C27870332
(12.464969) can2 18FEFF50#868581FED9EE91EA
(12.471387) can0 18EEFF10#C2C12082
(12.472393) can0 18FEFF50#04F2D604
(12.479249) can0 18F0FF40#DA6C
(12.481363) can2 18FEFF50#C0291CC238327E37
(12.482553) can0 18FEFFF4#534D
(12.484057) can1 18FEFF10#7C2E058D6EC08713
(12.492856) can0 18EEFF10#508C4E8316665E4D
(12.499540) can0 18FEFF40#6FACA9A68E6B5127
(12.502604) can2 18FEFF40#174FDC0B
(12.504090) can0 18FEFF31#CBB21DE0F672657C
(12.506657) can2 18F0FF31#F7D9CF656882D7E3
(12.512480) can0 18EEFFF4#DE3111A7D58EA4E1
(12.514593) can2 18F0FF10#48EE
(12.519230) can2 18EEFFFF#1F19458F3418E530
(12.523187) can1 18EEFF20#DE6D74FFB5498A33
(12.526187) can2 18F0FF00#BFD5
(12.529082) can2 18FEFF40#006E000501BE0007
(12.533562) can2 18FEFF31#6665C6930E7DF6AB
(12.536060) can0 18FEFF50#82CAB6D79EADE08D
(12.538536) can1 18EEFF10#472A5D9C
(12.543633) can0 18FEFF20#1BFE
(12.550843) can0 18FEFF00#6FBD9A53FDAB8F82
(12.557500) can2 18FEFF10#8194506DEC3656B6
(12.559479) can2 18FEFFF4#4BA98F8CCB4FC6D0
(12.567507) can0 18FEFF40#49BC
(12.568580) can0 18FEFFF4#1106
(12.571190) can2 18FEFF10#0530A8386A2B763B
(12.580128) can2 18FEFFF4#5AFD9759EE05EB68
(12.585346) can0 18FEFF10#37DF753C
(12.594087) can2 18FEFF20#C265EB999CA18DDD
(12.596057) can2 18FEFF00#E876
(12.603318) can1 18F0FF10#5C7A6849
(12.613269) can1 18FEFF50#E1E2ABF4E5570D20
(12.617743) can0 18FEFFFF#B844A276CA842057
(12.625514) can0 18FEFFFF#E8E8
(12.634237) can0 18FEFF00#219D1EF3
(12.641782) can0 18FEFFFF#A802D2291BD24233
(12.651635) can2 18F0FF10#24FB4A5E
(12.653401) can1 18FEFF00#3F59DBEB02A1066F
(12.657104) can0 18FEFF31#DB4713558785E65C
(12.661861) can1 18F0FF00#9E0393809F6975FD
(12.667538) can2 18EEFF10#43E340D8
(12.674493) can1 18FEFF10#F096BA1B
(12.681631) can1 18FEFF50#B52A8C92A6396FF2
(12.683176) can1 18EEFF00#99BF65AA
(12.687804) can1 18FEFF10#C377
(12.690121) can0 18FEFF10#5822543AFD32AD7B
(12.694532) can2 18FEFF50#13C304A74CB1FDD2
(12.697652) can1 18FEFF10#82626F7EC54FFDE4
(12.699887) can2 18FEFF20#E857247126F304F6
(12.701547) can1 18FEFF31#7F149B03F6E026E3
(12.710075) can2 18FEFF10#BAD298F3573F31AD
(12.715006) can2 18FEFF50#94F5
(12.718513) can1 18FEFF50#4E52DFCD
(12.727895) can0 18FEFF50#3866
(12.733367) can2 18F0FFF4#F1B5DAEA1AFBE912
(12.738201) can1 18FEFF31#2C21
(12.748163) can2 18EEFF20#0C2B1F0C048C2B67
(12.754470) can1 18EEFF00#F84799B4607BB740
(12.757416) can1 18FEFF31#06DA59A05D7830CC
(12.763265) can1 18FEFFF4#EF9226B312FFDBCC
(12.766451) can0 18F0FF10#A37001D4
(12.771333) can0 18FEFF50#66D50DE39997367E
(12.777599) can0 18FEFF31#23EFE729
(12.783284) can0 18FEFF40#68D8CCF4
(12.790391) can0 18EEFF20#4F474A59
(12.795782) can2 18FEFF50#320F97D2AE5CD189
(12.800055) can0 18FEFF31#C82FFFA4F657EC6D
(12.806896) can2 18F0FF20#472B410E
(12.813986) can2 18F0FF40#B51242E6BD9F966C
(12.816084) can0 18FEFFF4#22FF8AC5
(12.817441) can1 18FEFFFF#5258
(12.822574) can0 18FEFF00#D6FE64F732AF384E
(12.824063) can0 18FEFF20#B12926998489C0C0
(12.830397) can0 18F0FF31#66DD0785428D1852
(12.840030) can0 18F0FFF4#C74E2903D8EBC965
(12.842400) can0 18FEFF20#F118F10FCB1E7F24
(12.848437) can1 18FEFFFF#0D6D
(12.852794) can0 18F0FF31#39E9A5421B246FCA
(12.856210) can1 18FEFF40#71C70FF7DECF74F9
(12.866155) can1 18EEFF20#47E9E7A0CB198BAC
(12.872782) can0 18FEFFFF#B77D6EC5EE74620A
(12.877497) can1 18FEFF10#F9A8
(12.879620) can1 18FEFF20#5862D962AA3108D7
(12.885635) can2 18F0FFFF#6840
(12.893808) can2 18FEFFFF#8488F3AFB3D2AF1A
(12.896760) can1 18FEFF00#26A7
(12.905017) can0 18EEFF10#66B1
(12.913830) can2 18F0FF20#BB403130E380F595
(12.914900) can1 18FEFF10#4639FAE7979E8C6D
(12.921264) can1 18EEFF50#62E7
(12.929342) can2 18FEFF50#DA34
(12.934315) can2 18FEFF20#7F1F49E0484BD329
(12.942513) can1 18FEFF50#22AC79B7
(12.947991) can1 18F0FF40#1499B97D36960ECE
(12.957551) can1 18F0FFF4#D29F2747C1B31D9C
(12.966862) can2 18FEFF50#1FE6AB1B
(12.974849) can2 18FEFF10#0AE7
(12.981981) can0 18FEFF20#F5F323BD4B8EBFB2
(12.984195) can0 18FEFF00#372D
(12.989085) can1 18FEFF20#E04CE30B69D2A413
(12.991068) can2 18FEFF00#D8DB
(12.994480) can0 18FEFF00#EDF337D42478CDAD
(13.000420) can2 18FEFF50#E1129AED
(13.010412) can1 18EEFF10#77B5B0A2
(13.016552) can2 18F0FF00#7070CBC8D25FF327
(13.019898) can1 18EEFF31#AC4BF981EC4EBE3E
(13.027040) can0 18FEFF10#579A
(13.034194) can0 18FEFF10#F88B87CFA82053A2
(13.040144) can1 18FEFF00#8E49
(13.049359) can1 18EEFFFF#E414B04F98C955F2
(13.055807) can1 18FEFF10#CF30AB8381B2224B
(13.060996) can1 18F0FF40#239A8C447E41D5DF
(13.066246) can1 18EEFFFF#1BCA51589F434466
(13.073241) can0 18F0FFFF#60D4
(13.079699) can0 18FEFF00#7C3E7307
(13.082870) can0 18FEFF31#000000006E000301
(13.084227) can0 18FEFFF4#D8EF66F1232A347A
(13.089945) can1 18F0FF20#E0788E925CE66D86
(13.091050) can2 18F0FFF4#30A7066B
(13.099080) can1 18EEFF40#9212F3D26B50EBC4
(13.106867) can1 18F0FF50#82688DB8D092324B
(13.110960) can1 18F0FF00#53C4
(13.116760) can1 18FEFF00#8B4D22FF3CA721DF
(13.119839) can2 18EEFFF4#ECA4C918
(13.123040) can2 18FEFF10#B6310640
(13.125441) can0 18FEFF40#A7A25FF7
(13.128196) can0 18FEFF00#7985B2DA0FA71FBE
(13.136151) can2 18FEFF50#A3FF
(13.145633) can1 18EEFF10#7A14A844
(13.147213) can2 18EEFFFF#9BA2
(13.153606) can0 18F0FF10#83FCA244B5C7C90F
(13.158028) can1 18FEFFF4#87AEC49F41C36D27
(13.160467) can1 18FEFF10#E3001600
(13.163650) can0 18FEFFF4#C0C4D8FF
(13.165858) can0 18FEFFFF#BC0A45EF3BA56866
(13.168401) can2 18FEFF10#36F7AE503B4AC9A4
(13.171453) can1 18FEFF40#D4550FFAE188B278
(13.177224) can1 18EEFF50#6A14625C349286C4
(13.187159) can1 18EEFF10#BF8A0A67
(13.195306) can1 18F0FF00#A92F
(13.199319) can0 18FEFF40#3CFD151F
(13.204201) can1 18EEFFF4#C0F298C484489EC1
(13.205439) can2 18FEFF40#FFFACB31B477869F
(13.210024) can1 18EEFF10#F111FFDE4000A0E8
(13.218696) can0 18F0FF10#3A2D
(13.221956) can2 18F0FFF4#DE4F
(13.229094) can1 18FEFF00#0CCA
(13.236316) can1 18FEFF10#A9E5
(13.241452) can1 18FEFFF4#D2B6D548600429A1
(13.244919) can0 18EEFF31#B3A9437657A01F13
(13.250553) can1 18FEFF20#3D78F92C22874DC0
(13.255138) can0 18FEFFFF#547A9794E8D7F712
(13.258781) can2 18FEFFF4#234E7219
(13.259957) can0 18EEFFFF#9D38
(13.269009) can2 18FEFF10#8D56
(13.270610) can1 18FEFF31#6306D2FDF69AB536
(13.272516) can1 18FEFF20#26ADE64FB55EE170
(13.281293) can1 18FEFF20#7763E5BE6CD5E4F8
(13.289189) can0 18FEFF10#462692478DC8FC80
(13.298381) can1 18FEFF20#FEC1B2FCE1D55A03
(13.304346) can0 18FEFF50#68C4C9D91428C2C1
(13.309224) can0 18FEFF50#B6A9
(13.317191) can0 18F0FF40#BC2B00B9F5B167D3
(13.320100) can1 18FEFF40#7A5C
(13.329965) can1 18FEFFFF#BE6D331E7EFC4682
(13.334112) can2 18F0FF00#6854FB3892ED0979
(13.335292) can1 18FEFF20#C8BF
(13.341256) can0 18EEFF10#04A9A7BC4CAF482E
(13.350845) can2 18EEFFF4#B6CD8FF3
(13.351942) can0 18FEFFFF#B40B60D9CA7E6C75
(13.361036) can0 18F0FF40#899577205B165BB7
(13.366977) can1 18F0FF31#1794949E5F672C31
(13.368831) can2 18EEFF20#05904D00A2ED3F1D
(13.378069) can1 18FEFF10#A3F3909D
(13.387021) can0 18FEFF50#DC24
(13.395318) can0 18FEFFF4#FFDD90A3
(13.400051) can0 18FEFF10#45B86BF1D4775FD2
(13.402536) can0 18EEFFF4#4DB7B8F1
(13.404929) can2 18FEFF00#4A49EA4648360A8B
(13.406360) can2 18EEFF00#2B8A11FE50FA57BB
(13.414511) can0 18FEFF40#7121D5CE46CDD227
(13.417533) can1 18FEFF31#02E836884D5E3D94
(13.425804) can1 18FEFF50#C6BD2F749F415257
(13.427411) can2 18FEFF50#054287FA
(13.430032) can1 18FEFF20#2C559DCADDDF8391
(13.439647) can2 18EEFFF4#F726B6075CEE32DF
(13.447908) can0 18FEFFF4#63984CB13B35223E
(13.450876) can0 18FEFFF4#83C3901F
(13.456738) can2 18FEFFF4#A275A935
(13.465483) can1 18FEFF40#E8A20FB5
(13.470450) can0 18FEFFFF#5B51EC2F
(13.474718) can1 18FEFF31#216D34508145D243
(13.483928) can0 18FEFF00#4B6F
(13.487340) can2 18FEFF50#45796641
(13.495447) can1 18FEFFFF#4CDB195B7BB32445
(13.501992) can0 18EEFFF4#CCB259D84661AF9B
(13.503286) can0 18F0FFFF#D507
(13.506271) can0 18FEFFFF#1D507E6F
(13.513838) can1 18FEFF10#BBA7BBE0CC68F736
(13.523341) can2 18FEFFFF#02A0
(13.533180) can1 18FEFF31#CFDCC7CC314E50EA
(13.536418) can0 18EEFF50#8ED58B39
(13.546278) can0 18FEFF50#8EA0
(13.553001) can0 18FEFF10#29FC2A5D3DDD8D54
(13.557937) can2 18EEFFFF#F536617435089DE2
(13.559758) can2 18FEFFFF#C797
(13.562407) can1 18FEFF40#54E6C8A78BDFF345
(13.565022) can0 18FEFF00#40227FE692E2AC72
(13.572119) can1 18FEFF40#0A79912E24607437
(13.579453) can1 18FEFF00#F43F8FFC9A85C0BC
(13.582150) can2 18FEFFF4#EBB2
(13.590234) can1 18FEFF10#317724D9B920ECA7
(13.597534) can0 18FEFF31#5FE12F043CDED45F
(13.602741) can1 18FEFF00#511F6D3AA50EEAD1
(13.611615) can1 18FEFF50#22815AB3F397123C
(13.612633) can2 18FEFF22#006E000501BE0007
(13.616201) can1 18FEFFF4#A1BC4E51AFE5B911
(13.621770) can2 18FEFF50#E2E8CA41
(13.625021) can2 18FEFFFF#36D0D59CAA1089E4
(13.626066) can2 18EEFFF4#90DA
(13.630915) can0 18F0FF00#930E89B95D39BC9F
(13.638387) can1 18FEFF40#B411
(13.643577) can0 18EEFF00#2AB25E67DECBE620
(13.647893) can2 18FEFF00#4CE8196A1A8229BE
(13.652796) can1 18F0FF00#E4E1
(13.658303) can0 18EEFF10#1D84DAF88D1A27DF
(13.664872) can2 18FEFFFF#DB05
(13.668263) can0 18FEFFFF#270E14651563545A
(13.677793) can2 18FEFF20#32A1F82F
(13.687066) can1 18EEFF50#70027B6F48FCB96F
(13.688357) can2 18FEFFFF#B5A122AB
(13.695774) can1 18FEFF00#DB5B891A5B3A7437
(13.702945) can1 18FEFF10#9CC12592FFEAE408
(13.711176) can1 18FEFF40#E5BCA0ECC9DCA89C
(13.714065) can2 18F0FFFF#CFFE2F77DAB43621
(13.722783) can0 18EEFF20#B846810B2A872466
(13.731645) can2 18FEFF00#53ECD352
(13.736216) can0 18FEFF00#349B
(13.746110) can0 18FEFF20#0448
(13.750879) can1 18FEFF40#C3F461554BD0CC5E
(13.754904) can2 18FEFFFF#F4A44508CF196FD4
(13.762272) can0 18F0FF00#48BCD44B7F489294
(13.771501) can2 18FEFF00#E45D780228DA733C
(13.781332) can2 18F0FF20#F12A
(13.784723) can1 18EEFFF4#9600
(13.791003) can1 18EEFF10#384835C69E482D45
(13.792520) can2 18FEFF31#A2008AB06BD08959
(13.801453) can0 18EEFF31#48BF60D652240099
(13.811061) can0 18FEFF00#E284
(13.819052) can1 18EEFF20#7BD2
(13.824426) can2 18EEFF50#ED93773AE05670EF
(13.833473) can0 18FEFF00#B3E04DF224BAD548
(13.839138) can1 18FEFF40#35663884
(13.841637) can1 18FEFF20#12DE7E2802098069
(13.848539) can1 18EEFF00#37E4E3DC689813D3
(13.853972) can0 18FEFF31#A7E923EC
(13.855733) can1 18FEFF10#9498859B
(13.857328) can0 18FEFFF4#8E6EFBCBB81FE835
(13.863025) can0 18FEFF00#122E49FF31A0AD8A
(13.868024) can1 18F0FF31#09C3
(13.872847) can1 18EEFF40#DB34FDD47667445C
(13.882657) can1 18FEFF31#671DDA34091A74D4
(13.887441) can1 18FEFF40#186D
(13.895995) can0 18F0FFFF#646A
(13.904443) can0 18FEFF31#3A8EBD8F
(13.912947) can0 18FEFF10#C9B53A4CAFEEDB84
(13.917341) can1 18FEFFF4#615C7CA694443788
(13.921059) can1 18FEFFFF#23ACB445394D29F2
(13.925836) can1 18EEFF00#20BBEC2B1A8F4019
(13.927305) can0 18FEFF20#A3B4D121
(13.930893) can1 18FEFFFF#35CF
(13.933713) can2 18F0FF10#2337812002815155
(13.940578) can0 18FEFF40#C54A
(13.942701) can1 18FEFFF4#22A14DB7
(13.950741) can0 18FEFFF4#4504A017
(13.954271) can1 18FEFF31#C581F61878F526DF
(13.955793) can1 18F0FFFF#B7C23DBE5558AD66
(13.957367) can0 18FEFF40#68F939F1C8DAB773
(13.958639) can0 18FEFF40#A2BFB904
(13.966741) can2 18FEFFF4#717B6372
(13.974236) can2 18FEFF10#E773B03C9CC3E5F2
(13.979984) can1 18FEFF40#CFB2
(13.981137) can1 18FEFF40#5EF6DE0825ED67D5
(13.986982) can0 18FEFF50#AAC9
(13.990426) can1 18FEFFFF#56E556B9485F5273
(14.000212) can1 18F0FF10#2989E6D904DAEE3E
(14.002612) can0 18FEFFF4#CD2C
(14.007848) can0 18FEFFFF#0B4523AE
(14.013557) can2 18FEFF00#8091CAD5
(14.017648) can2 18FEFF00#608DA361240BA9C4
(14.022706) can2 18EEFF20#BC6D218B
(14.029883) can1 18FEFF10#AD3F83000B064520
(14.039359) can1 18EEFF50#C12CFAE5688E5560
(14.042624) can1 18FEFF10#37677F7F44BB6F05
(14.046228) can1 18FEFF40#97156727B42B89E8
(14.055453) can1 18FEFFF4#9856E311
(14.062809) can1 18FEFF50#801A2BA5
(14.069930) can0 18F0FF10#5710BA79C93EB61F
(14.073865) can2 18FEFF50#730089EA
(14.078115) can2 18FEFF31#5E670309
(14.085317) can0 18FEFF00#59D6A81B9CAA2027
(14.090394) can2 18EEFF31#7CE89601C5BF98A7
(14.095443) can1 18F0FF00#D0409BA3C3756FB6
(14.097188) can0 18FEFF10#A0BEA5A4
(14.100254) can2 18FEFF50#9A75F1F2BAEF181B
(14.110096) can0 18FEFFF4#5DD1
(14.111098) can1 18FEFFFF#4BA71582A590C3FE
(14.112426) can1 18FEFF20#D6FEFCF4F236A059
(14.114930) can0 18EEFF00#B31B1EB2
(14.124521) can0 18FEFFFF#7EA045B4
(14.133603) can2 18FEFF31#4CCB109F3C586DEF
(14.143525) can0 18F0FF20#667DF21E59C07196
(14.148109) can2 18FEFFFF#22D745596AE9C284
(14.152123) can1 18FEFF20#DF0F6169C88BCF16
(14.157657) can1 18FEFF10#B97ED336
(14.160863) can1 18FEFF22#006E000501BE0007
(14.166833) can0 18FEFFF4#DD0B
(14.169140) can1 18FEFFFF#4D25B6B2D7AEE1B4
(14.170218) can1 18FEFFF4#FB712B864A526784
(14.179395) can1 18FEFF31#31C6
(14.187534) can2 18FEFF31#D5CF721B54298619
(14.190965) can1 18FEFF20#96BC017E3492C59E
(14.197711) can2 18FEFFF4#4BD1
