(0.000000) can0 18ECFF00#20100002FFCAFE00
(0.001000) can0 18EBFF00#01AABBCCDDEEFF11
(0.002000) can0 18FEBF0B#0040FE7D7DFFFF00
(0.011000) can0 18EBFF00#02AABBCCDDEEFF11
(0.012000) can0 18FEBF0B#0140FE7D7DFFFF10
(0.021000) can0 18EBFF00#03AABBCCDDEEFF11
(0.022000) can0 18FEBF0B#0240FE7D7DFFFF20
(0.031000) can0 18EBFF00#04AABBCCDDEEFF11
(0.032000) can0 18FEBF0B#0340FE7D7DFFFF30
(0.041000) can0 18EBFF00#05AABBCCDDEEFF11
(0.042000) can0 18FEBF0B#0440FE7D7DFFFF40
(0.051000) can0 18EBFF00#06AABBCCDDEEFF11
(0.052000) can0 18FEBF0B#0540FE7D7DFFFF50
(0.061000) can0 18EBFF00#07AABBCCDDEEFF11
(0.062000) can0 18FEBF0B#0640FE7D7DFFFF60
(0.071000) can0 18EBFF00#08AABBCCDDEEFF11
(0.072000) can0 18FEBF0B#0740FE7D7DFFFF70
(0.080000) can0 18ECFF00#20100002FFCAFE00
(0.081000) can0 18EBFF00#09AABBCCDDEEFF11
(0.082000) can0 18FEBF0B#0840FE7D7DFFFF80
(0.091000) can0 18EBFF00#0AAABBCCDDEEFF11
(0.092000) can0 18FEBF0B#0940FE7D7DFFFF90
(0.101000) can0 18EBFF00#0BAABBCCDDEEFF11
(0.102000) can0 18FEBF0B#0A40FE7D7DFFFFA0
(0.111000) can0 18EBFF00#0CAABBCCDDEEFF11
(0.112000) can0 18FEBF0B#0B40FE7D7DFFFFB0
(0.121000) can0 18EBFF00#0DAABBCCDDEEFF11
(0.122000) can0 18FEBF0B#0C40FE7D7DFFFFC0
(0.131000) can0 18EBFF00#0EAABBCCDDEEFF11
(0.132000) can0 18FEBF0B#0D40FE7D7DFFFFD0
(0.141000) can0 18EBFF00#0FAABBCCDDEEFF11
(0.142000) can0 18FEBF0B#0E40FE7D7DFFFFE0
(0.151000) can0 18EBFF00#10AABBCCDDEEFF11
(0.152000) can0 18FEBF0B#0F40FE7D7DFFFFF0
(0.160000) can0 18ECFF00#20100002FFCAFE00
(0.161000) can0 18EBFF00#11AABBCCDDEEFF11
(0.162000) can0 18FEBF0B#1040FE7D7DFFFF00
(0.171000) can0 18EBFF00#12AABBCCDDEEFF11
(0.172000) can0 18FEBF0B#1140FE7D7DFFFF10
(0.181000) can0 18EBFF00#13AABBCCDDEEFF11
(0.182000) can0 18FEBF0B#1240FE7D7DFFFF20
(0.191000) can0 18EBFF00#14AABBCCDDEEFF11
(0.192000) can0 18FEBF0B#1340FE7D7DFFFF30
(0.201000) can0 18EBFF00#15AABBCCDDEEFF11
(0.202000) can0 18FEBF0B#1440FE7D7DFFFF40
(0.211000) can0 18EBFF00#16AABBCCDDEEFF11
(0.212000) can0 18FEBF0B#1540FE7D7DFFFF50
(0.221000) can0 18EBFF00#17AABBCCDDEEFF11
(0.222000) can0 18FEBF0B#1640FE7D7DFFFF60
(0.231000) can0 18EBFF00#18AABBCCDDEEFF11
(0.232000) can0 18FEBF0B#1740FE7D7DFFFF70
