(0.000) can0 18F00400#1020300000000000
(0.100) can0 18F00400#1020300703000000
(0.200) can0 18F00400#1020300E06000000
(0.300) can0 18F00400#1020301509000000
(0.400) can0 18F00400#1020301C0C000000
(0.500) can0 18F00400#102030230F000000
(0.600) can0 18F00400#1020302A12000000
(0.700) can0 18F00400#1020303115000000
(0.800) can0 18F00400#1020303818000000
(0.900) can0 18F00400#1020303F1B000000
(1.000) can0 18F00400#102030461E000000
(1.100) can0 18F00400#1020304D21000000
(1.200) can0 18F00400#1020305424000000
(1.300) can0 18F00400#1020305B27000000
(1.400) can0 18F00400#102030622A000000
(1.500) can0 18F00400#102030692D000000
(1.600) can0 18F00400#1020307030000000
(1.700) can0 18F00400#1020307733000000
(1.800) can0 18F00400#1020307E36000000
(1.900) can0 18F00400#1020308539000000
(2.000) can0 18F00400#1020308C3C000000
(2.100) can0 18F00400#102030933F000000
(2.200) can0 18F00400#1020309A42000000
(2.300) can0 18F00400#102030A145000000
(2.400) can0 18F00400#102030A848000000
(2.500) can0 18F00400#102030AF4B000000
(2.600) can0 18F00400#102030B64E000000
(2.700) can0 18F00400#102030BD51000000
(2.800) can0 18F00400#102030C454000000
(2.900) can0 18F00400#102030CB57000000
(3.000) can0 18F00400#102030D25A000000
(3.100) can0 18F00400#102030D95D000000
(3.200) can0 18F00400#102030E060000000
(3.300) can0 18F00400#102030E763000000
(3.400) can0 18F00400#102030EE66000000
(3.500) can0 18F00400#102030F569000000
(3.600) can0 18F00400#102030FC6C000000
(3.700) can0 18F00400#102030036F000000
(3.800) can0 18F00400#1020300A72000000
(3.900) can0 18F00400#1020301175000000
